!Keysight Technologies N9917A: A.09.53
!Date: Thursday, 10 October 2019 13:31:11
!TimeZone: (UTC-08:00) Pacific Time (US & Canada)!Model: N9917A
!Serial: MY56072049
!GPS Latitude: 
!GPS Longitude: 
!GPS TimeStamp: 0001-01-01 00:00:00Z
!GPS Seconds Since Last Read: 0
!CHECKSUM:0412827352
!Correction: S11(ON U)
!S1P File: Measurement: S11:
# Hz S DB R 50
1000000000	-48.7649051402508	-163.332943197184
1010625000	-51.1301625320707	-101.649767880653
1021250000	-53.9141669998974	-115.882263115771
1031875000	-48.1886461640564	-62.76608931038
1042500000	-52.4962108578074	-17.0059998534368
1053125000	-52.8766986369296	-31.9624234999831
1063750000	-52.9083193095848	76.1077895820909
1074375000	-48.7170891961698	109.715553135075
1085000000	-52.8126705716215	132.829194173264
1095625000	-56.6469769325858	-167.79917435973
1106250000	-54.5807599596594	-129.850389755335
1116875000	-54.2920212065278	-63.6852755925937
1127500000	-53.0001441730409	-35.3705135901678
1138125000	-49.0854332900656	9.43472672778806
1148750000	-50.5405069639894	55.7884637950956
1159375000	-52.1469009984677	62.3961345979804
1170000000	-49.4105601987765	112.132354373042
1180625000	-50.6164776141446	146.203574502747
1191250000	-56.4690978483141	-150.937129446726
1201875000	-51.1803799226756	-139.874698996286
1212500000	-49.7271573771814	-69.2056011521368
1223125000	-56.6588371780118	-80.1297598902393
1233750000	-47.8035923197369	-9.85778478317205
1244375000	-53.763492646145	-1.51940248599707
1255000000	-50.6528693579179	85.1138802505807
1265625000	-47.4639790692552	125.761260763262
1276250000	-46.3227205122694	-171.58752202616
1286875000	-51.8745749192192	-162.568974553912
1297500000	-50.5236985818609	-156.966893357211
1308125000	-47.296546199713	-96.139060678229
1318750000	-51.0185127723021	-64.8132310067524
1329375000	-51.1388021101574	-23.9451225609913
1340000000	-45.323174912744	16.7166096525847
1350625000	-45.8103732390335	52.1260814025269
1361250000	-47.5652280142356	87.2282895964054
1371875000	-49.5021665352104	134.806647181413
1382500000	-55.1661821610033	152.284523592092
1393125000	-50.4195531662305	157.147901579625
1403750000	-46.8313167734075	-131.074298064597
1414375000	-50.670553179205	-112.840068471047
1425000000	-50.1776489099268	-70.4829224923155
1435625000	-47.8123397585507	-43.0049576847805
1446250000	-49.9866304956268	-16.2804102594649
1456875000	-47.9528423549257	25.327292265428
1467500000	-47.0676403472193	61.1421301336934
1478125000	-48.9370834493794	97.4729282876765
1488750000	-47.4597945707487	87.7724886474323
1499375000	-50.0486308759405	-168.927574134386
1510000000	-44.4807262630241	-159.912933843327
1520625000	-47.5790183811054	-172.431942103589
1531250000	-47.6987084764807	-106.513865383768
1541875000	-48.3655715563723	-91.2235642021277
1552500000	-47.4770618143031	-61.3709811225643
1563125000	-44.5102484620972	-28.8081144773762
1573750000	-46.5132542090718	19.2146610599963
1584375000	-45.213748677041	32.5628169297158
1595000000	-43.3095830750996	79.9345644776725
1605625000	-45.1324377099657	87.8079590432382
1616250000	-42.2307042941451	128.628948451368
1626875000	-44.6758287553559	175.578454626732
1637500000	-42.662214213085	-172.222376469891
1648125000	-42.5767063946019	-126.446015302414
1658750000	-42.560553329941	-74.969663164739
1669375000	-42.2735987686124	-54.7469794984603
1680000000	-41.0166382909735	-32.5270369135355
1690625000	-41.8451949566454	4.20254074924696
1701250000	-41.0263121257516	49.486610053109
1711875000	-44.3982915697888	80.3319484592382
1722500000	-40.3511587633989	118.380000405953
1733125000	-39.5893172642287	153.226221835818
1743750000	-40.8923160512939	-164.885358222168
1754375000	-41.3671317694626	-140.591642092957
1765000000	-39.6285657173084	-96.8580661636709
1775625000	-39.8284554953622	-69.6522011552308
1786250000	-38.880680997937	-41.8287323936963
1796875000	-40.1612830162105	3.90736742676066
1807500000	-39.8772164164838	43.0914245796553
1818125000	-39.4268572920599	66.702016953957
1828750000	-38.8037592103344	105.941689007618
1839375000	-39.9697363423367	147.397835077313
1850000000	-39.8996719201673	-172.696842521106
1860625000	-37.9707080721966	-143.360013677645
1871250000	-39.3529619264756	-108.583523530904
1881875000	-38.8812357479164	-71.931719249104
1892500000	-39.5517236643976	-32.3420483256761
1903125000	-39.2598122537809	-0.913811630477971
1913750000	-38.65783524314	36.2561429711897
1924375000	-38.2220111001799	63.4277847819435
1935000000	-39.7929384485484	107.48604833073
1945625000	-39.7827074865803	134.002960626195
1956250000	-40.2540781624433	174.697455251848
1966875000	-39.7015624115379	-157.148037601556
1977500000	-41.1080134452308	-117.263694276353
1988125000	-41.9410495758053	-84.8746414962467
1998750000	-40.3165743021682	-56.7173838327286
2009375000	-40.1084160003362	-24.2614631722489
2020000000	-41.0528034705217	19.8312637061201
2030625000	-42.2558395133766	41.5942517595445
2041250000	-42.5194545557707	93.6598272642589
2051875000	-41.5101714518978	123.713010578398
2062500000	-41.0047170309887	156.991105101276
2073125000	-43.3902149541167	-170.239631598858
2083750000	-40.8492709154226	-138.07542437226
2094375000	-41.4022360185588	-116.068907614081
2105000000	-39.9750835271517	-79.773549262227
2115625000	-39.9423254682179	-45.4390364616248
2126250000	-40.7941060744457	5.64617504493533
2136875000	-43.6597769810763	20.6237145538114
2147500000	-41.2101231725419	55.8718614416187
2158125000	-43.8656236711492	91.804907905828
2168750000	-42.5647726403382	120.611698831883
2179375000	-41.9321055650448	156.206767456592
2190000000	-42.6602003334883	-176.226195844048
2200625000	-43.7705409879418	-139.584857509694
2211250000	-41.9127023995231	-105.322198559875
2221875000	-42.5656511526441	-66.2020195851783
2232500000	-41.3028194758394	-42.0424987111359
2243125000	-40.9724587839531	4.48119175261366
2253750000	-39.9379048449211	25.7543607239211
2264375000	-41.8440060690836	60.3762048480249
2275000000	-40.6416859777589	96.5459712031112
2285625000	-39.8101414203593	141.12382765895
2296250000	-40.2476669900156	169.682824459095
2306875000	-39.5734601609021	-158.723906680846
2317500000	-38.7863156514013	-118.761054575143
2328125000	-39.8234032004961	-76.7971904603638
2338750000	-39.5310527020681	-49.5613175160211
2349375000	-39.7760839914914	-24.6622676530651
2360000000	-38.2783836800582	19.2237723669978
2370625000	-39.9714258258188	59.0453994587024
2381250000	-39.6804939457894	82.4806345975424
2391875000	-38.8576388353186	114.985443337891
2402500000	-40.2787116306087	154.038625378161
2413125000	-39.0858425770659	-166.048072302105
2423750000	-39.656215404967	-125.954665402181
2434375000	-38.5554975819328	-94.8340384612468
2445000000	-38.636657726406	-62.9763615207336
2455625000	-39.4742935637119	-17.197056008628
2466250000	-38.5831508988506	9.49168361523932
2476875000	-39.6325391878916	42.3341318938125
2487500000	-39.2792445240477	82.6523990940274
2498125000	-39.3039151203054	115.786435210442
2508750000	-37.4495607760354	155.146731754778
2519375000	-41.1167856237529	-164.701561961406
2530000000	-39.8395016794772	-134.518908978036
2540625000	-40.4753455634638	-95.8625426644342
2551250000	-39.7614625835738	-68.0015419250414
2561875000	-39.7944174077556	-34.9231262625941
2572500000	-39.4038044374428	6.6172843324036
2583125000	-39.3997898055635	33.8903521302534
2593750000	-40.1431297621164	76.0184164685556
2604375000	-39.25847050342	99.4954177738309
2615000000	-42.1563938200783	138.809438272629
2625625000	-40.8749750297176	-177.046022365194
2636250000	-40.1261885340523	-140.097467467575
2646875000	-40.6967076334153	-114.52574004451
2657500000	-42.4071381159112	-75.2885971991564
2668125000	-39.1338495434922	-45.383567320126
2678750000	-40.5612789205911	-10.9794118014992
2689375000	-40.0673967744183	32.3661270701216
2700000000	-41.5598466372163	70.2338325466688
2710625000	-42.1928814477802	98.7074999900418
2721250000	-41.9539693342408	126.537361504287
2731875000	-42.78186616098	167.076384484821
2742500000	-42.0440266369462	-158.596489840831
2753125000	-43.6366741868172	-129.27930822386
2763750000	-41.3377878426414	-77.9558954584516
2774375000	-42.6814085867064	-46.0998261479656
2785000000	-41.7510566023814	-35.8933380791732
2795625000	-42.1092360796951	9.60567541048204
2806250000	-41.8524717778299	26.3852796729254
2816875000	-41.0628497134837	80.4850398202231
2827500000	-42.5573673755437	114.027768935584
2838125000	-45.6825081343676	123.661750289195
2848750000	-42.9693568261792	-176.08294673631
2859375000	-42.8409391575811	-151.597208836624
2870000000	-42.6102562677259	-121.033164169018
2880625000	-40.3878457846332	-80.9284940112367
2891250000	-41.0133286966158	-61.3380724776603
2901875000	-39.9596590806491	-14.0736729008819
2912500000	-41.8022848462781	10.6693362826061
2923125000	-41.1313010065281	46.9820263044328
2933750000	-39.6995491235082	83.2885249679327
2944375000	-41.3500243566334	115.755733059329
2955000000	-40.9797635060058	151.581374384453
2965625000	-40.7720153658259	-170.751032725847
2976250000	-41.1305270369426	-134.456387599337
2986875000	-40.444800111142	-101.308233467163
2997500000	-39.5674682504523	-51.2987078942645
3008125000	-39.8043367168398	-17.7201392640827
3018750000	-38.9023618797158	-4.56938209367345
3029375000	-40.1524586625887	41.5431833043797
3040000000	-40.4154548439704	77.5871015163289
3050625000	-41.1670041277252	126.430848811312
3061250000	-40.3817850009514	133.358678219903
3071875000	-39.3732617781176	178.375026768025
3082500000	-39.5143705695786	-139.220892691571
3093125000	-39.2878287487675	-108.944128558356
3103750000	-39.4343237201903	-65.746686128394
3114375000	-39.1833507321485	-33.1989035092897
3125000000	-38.7629706158019	-3.47576459310654
3135625000	-38.2611353608186	24.3514100173112
3146250000	-39.4970864827191	68.4268443809149
3156875000	-39.8464931148097	118.695472153594
3167500000	-39.5533010850965	153.933555528253
3178125000	-40.9173244896532	-179.470858364469
3188750000	-39.8663469883056	-152.375884118783
3199375000	-40.884175189834	-103.118612406326
3210000000	-39.7401467330626	-73.6916508602081
3220625000	-39.9182461671454	-38.5038953827281
3231250000	-40.8964634193278	-9.9417333480585
3241875000	-40.4732907129204	29.428219189331
3252500000	-41.669730364283	71.2606570296443
3263125000	-40.6723196793119	99.2587773218571
3273750000	-40.7065587518329	144.679599423007
3284375000	-42.0984279446242	176.420167577412
3295000000	-39.7418417315777	-146.68136669347
3305625000	-41.0835035452859	-125.891162648047
3316250000	-40.9571815544815	-76.4201860416092
3326875000	-42.974236233072	-49.3232388143326
3337500000	-41.2710838947229	-8.335845340679
3348125000	-41.0601881412377	21.3585383242135
3358750000	-40.805646467261	57.0087006957356
3369375000	-43.2064624810431	77.6828437027639
3380000000	-43.7156288019984	106.182428843555
3390625000	-42.1666534589545	149.260686597733
3401250000	-43.2485912842127	-172.798888642167
3411875000	-45.7666541516876	-141.668788567277
3422500000	-42.1666287989902	-107.314450989538
3433125000	-41.8599210551003	-65.282029587248
3443750000	-43.6535768965211	-49.3594444259123
3454375000	-43.1704801036839	-1.36071700346513
3465000000	-42.7558614381109	22.8946815486538
3475625000	-41.2083717119141	66.4123214314004
3486250000	-43.4927029853809	105.236764481377
3496875000	-42.1797205621183	124.860907910596
3507500000	-42.7401950863571	166.691376691419
3518125000	-47.3864670783916	-164.525114255394
3528750000	-42.4383799674995	-124.955171499455
3539375000	-41.4943300997314	-92.3087671237538
3550000000	-40.2705068405011	-58.357679281712
3560625000	-42.209563721746	-28.7487923159427
3571250000	-40.9692180651762	-1.22931203329904
3581875000	-42.0185458317376	25.0054292218847
3592500000	-43.0366134145911	83.4061568632285
3603125000	-42.9664688494047	89.3756353920217
3613750000	-41.7845419688634	151.494409281218
3624375000	-42.0294900922415	-175.872174315537
3635000000	-42.9360352163182	-154.04483027614
3645625000	-41.0197111841772	-108.427837115043
3656250000	-39.6134572791598	-67.2165158630764
3666875000	-39.5558905131855	-34.4965739506938
3677500000	-39.980373218268	-4.37694472541644
3688125000	-39.7596633613447	24.3816445152171
3698750000	-41.8155068028895	69.5161027330272
3709375000	-42.6867824241011	96.6130094268624
3720000000	-40.0522480379666	135.426484550928
3730625000	-40.1389066007077	162.034884118447
3741250000	-40.9806370160112	-147.323400080562
3751875000	-40.9742727067118	-108.652018055849
3762500000	-39.3252866476596	-81.0216075847621
3773125000	-38.0017499192117	-38.5149535037948
3783750000	-40.3448136249579	-6.971198869424
3794375000	-40.3775405589259	24.0327399983792
3805000000	-42.127985352584	59.5290870830859
3815625000	-40.042046854594	97.8188316084623
3826250000	-39.2436778552751	130.145401453289
3836875000	-39.5466370048467	173.994948061548
3847500000	-38.9802634704567	-154.459851446751
3858125000	-38.6910206726256	-116.051785316236
3868750000	-39.1054588117899	-85.5546813954331
3879375000	-39.3609917461941	-56.3101665098249
3890000000	-40.2340277660565	-20.0483218165574
3900625000	-39.9732496382895	22.8045215878049
3911250000	-40.7841298745039	55.0773387455726
3921875000	-41.6887548162357	104.025995993551
3932500000	-41.4689477632649	122.950573811144
3943125000	-42.9587430704814	170.17152378125
3953750000	-40.9615305361778	-148.802717878407
3964375000	-40.7319527626331	-121.093489815207
3975000000	-41.3130249034702	-87.38617671504
3985625000	-41.0373952798768	-52.3673532349837
3996250000	-41.3910968841332	-31.9179153416682
4006875000	-42.2544124258767	18.2408574301444
4017500000	-41.8103610679959	59.526241515596
4028125000	-42.6300561806973	89.7120148929236
4038750000	-42.6764868845139	106.958214150332
4049375000	-44.611620006718	158.102155261117
4060000000	-43.6270379164371	-162.434396253167
4070625000	-44.4920503096128	-148.817311217502
4081250000	-41.9461672365842	-110.604661098143
4091875000	-42.1982848885581	-68.7325987190501
4102500000	-42.3555593163993	-52.52986303873
4113125000	-46.6707823275102	-6.18502375905174
4123750000	-45.4376300520408	28.4696960681787
4134375000	-45.1367032652959	58.6230887003393
4145000000	-44.3702391535186	95.1226019834698
4155625000	-42.8587769947978	129.635144696622
4166250000	-47.393320565081	172.324417780956
4176875000	-43.546908436754	-166.183069046502
4187500000	-43.6195301437522	-128.717885060406
4198125000	-44.2405388228459	-93.1841469881749
4208750000	-42.279655855412	-63.3481401448073
4219375000	-45.0136241516251	-34.3499862970553
4230000000	-41.4114131937784	-9.83824969104644
4240625000	-43.4997247571473	25.7854576712141
4251250000	-41.6947575002477	64.3677395200986
4261875000	-44.1214773292225	107.491359370391
4272500000	-43.0977390616046	161.352795211269
4283125000	-42.8030402151019	178.722016910546
4293750000	-40.3435733964277	-149.510401361978
4304375000	-40.6723146246245	-131.382212273794
4315000000	-40.4611743180652	-84.189146959595
4325625000	-41.7826179654097	-50.8744125183539
4336250000	-41.3990843357635	-18.8687634239456
4346875000	-42.5405070537502	1.82075628870863
4357500000	-43.2443604089529	72.9532785599284
4368125000	-40.7129362776473	86.4979004266171
4378750000	-42.6623150216387	135.993136392388
4389375000	-42.4570373890489	162.394415905707
4400000000	-40.7361571935255	-155.833206100832
4410625000	-41.7251139101568	-137.935419613182
4421250000	-41.6034147653697	-84.4457376924259
4431875000	-40.7113723199829	-50.798028269607
4442500000	-39.4856988780544	-19.4506026348575
4453125000	-40.9622197448855	18.7119119602394
4463750000	-38.9802365616397	44.3725126396081
4474375000	-41.4333818276257	76.3235576384942
4485000000	-41.9195436103814	116.253885107748
4495625000	-43.9003934046206	167.049508546127
4506250000	-40.6668672328632	-150.067499919241
4516875000	-38.5050869922993	-130.753427747436
4527500000	-38.5435528191197	-93.3949210953078
4538125000	-40.4057780925124	-51.0432625872117
4548750000	-41.3958408812388	-34.602231395474
4559375000	-40.6577013847865	8.67434802839002
4570000000	-39.9710016301891	53.7077681178886
4580625000	-40.8203549589941	80.3180568666468
4591250000	-42.2555899039819	137.918475029315
4601875000	-40.7778228025973	149.567451840055
4612500000	-41.9807356436176	-172.007299860799
4623125000	-42.2426055651183	-133.100738417817
4633750000	-43.047560909687	-108.727367560001
4644375000	-41.355072063251	-49.7201120531319
4655000000	-42.9551599122489	-36.6673830404851
4665625000	-42.955496646615	0.848903307961195
4676250000	-40.5128017271083	47.8887209273054
4686875000	-45.483770125584	72.7071792294038
4697500000	-42.0873385486689	101.013219377477
4708125000	-44.1615530357992	156.989172760968
4718750000	-44.1453718629692	175.83213160178
4729375000	-44.3473983616197	-148.057035882244
4740000000	-41.6101890910764	-116.794367115544
4750625000	-43.5771737186082	-81.6314653536893
4761250000	-44.7306620669717	-23.8750140796325
4771875000	-44.3930278136747	-9.75696240283255
4782500000	-45.7103214657698	4.19407428202916
4793125000	-46.8550640258402	74.6156935225967
4803750000	-48.0695424287045	89.2883251420491
4814375000	-46.6358957552742	133.085525706853
4825000000	-44.0168938927097	157.433033197446
4835625000	-42.4309802699964	-167.340192877473
4846250000	-48.9962305536025	-124.93546791761
4856875000	-43.5756039267143	-90.6771821926695
4867500000	-44.8247498415261	-57.659008430389
4878125000	-44.7029328901253	-51.2041408415906
4888750000	-44.2462249634864	-13.1833210286705
4899375000	-47.6752370196415	15.8981117131061
4910000000	-45.1034220993127	62.8032479795885
4920625000	-42.8642818099664	96.8413103812141
4931250000	-42.7764425883895	123.958304859682
4941875000	-46.3965023131663	159.19016460244
4952500000	-41.862238477329	-150.520313720516
4963125000	-43.4009647053281	-116.975254121041
4973750000	-45.7007557519543	-79.370727532102
4984375000	-45.4113069042287	-45.7612157541443
4995000000	-44.9577746368647	-15.471168883445
5005625000	-44.4908089380992	16.6132269891656
5016250000	-40.4446405805561	33.1149820529719
5026875000	-42.9066293113855	86.8893745142627
5037500000	-41.8205284653341	113.892683805647
5048125000	-44.4368746206908	172.611212242871
5058750000	-40.6791992511388	-173.479857135134
5069375000	-46.0437986884824	-80.436475356152
5080000000	-43.1208155619274	-95.4465701219439
5090625000	-43.2868009851737	-74.1934276688774
5101250000	-44.4202446323903	-46.3536162190826
5111875000	-43.7257518714398	23.5988989537377
5122500000	-42.4192302127659	45.819967288839
5133125000	-41.3737198450198	74.9040592482763
5143750000	-40.8183006975001	109.878456557218
5154375000	-44.814191219742	152.88651928049
5165000000	-41.2249972680496	-168.361329443742
5175625000	-42.108796746317	-149.006079382735
5186250000	-43.5673059842477	-122.086183874275
5196875000	-40.8500531430202	-73.7845655028871
5207500000	-41.0024635723692	-29.4722559259534
5218125000	-44.0424369830591	7.75814560677931
5228750000	-44.9185558909267	48.8942227006249
5239375000	-43.679176628078	85.1830692919858
5250000000	-47.4132556893839	98.5416038242424
5260625000	-41.6374278455714	156.199191300954
5271250000	-42.3080506487283	-169.941200835315
5281875000	-41.0629015871256	-113.713207148794
5292500000	-41.008230589715	-94.0708923107286
5303125000	-43.4154351293891	-70.2685774114422
5313750000	-46.0192553711015	-50.9304496439705
5324375000	-42.1906467023337	-7.28482711305401
5335000000	-46.3609336375874	19.9518453884778
5345625000	-46.8894473315947	64.1624140359972
5356250000	-45.6251245398057	79.232732126163
5366875000	-42.7649349226982	155.396292507542
5377500000	-45.8036922459805	160.390075327116
5388125000	-44.0919775345002	-162.178298482289
5398750000	-44.215040170533	-113.256718484619
5409375000	-45.9155758001738	-92.4452060174467
5420000000	-48.4012625110566	-48.7616724156955
5430625000	-49.3398801832513	-22.6892718405605
5441250000	-44.122649213666	8.0277268831117
5451875000	-47.8313628367618	7.10218117421817
5462500000	-46.0953555701604	80.8656024848015
5473125000	-45.7539868809993	112.04345063778
5483750000	-47.347597994827	135.603240135621
5494375000	-46.6416997084685	-176.215328292331
