!Keysight Technologies N9917A: A.09.53
!Date: Thursday, 10 October 2019 13:33:40
!TimeZone: (UTC-08:00) Pacific Time (US & Canada)!Model: N9917A
!Serial: MY56072049
!GPS Latitude: 
!GPS Longitude: 
!GPS TimeStamp: 0001-01-01 00:00:00Z
!GPS Seconds Since Last Read: 0
!CHECKSUM:1696395845
!Correction: S11(ON U)
!S1P File: Measurement: S11:
# Hz S DB R 50
1000000000	0.411301795129922	-59.9048644514085
1010625000	0.426642963411001	-60.5601438619202
1021250000	0.455793490290496	-61.0441173747409
1031875000	0.489361541225114	-61.4270149928979
1042500000	0.480456235325001	-61.6257323688947
1053125000	0.469250374141045	-62.0006274930455
1063750000	0.49184651212378	-62.3979808202633
1074375000	0.493318823717135	-62.9579720889843
1085000000	0.485637134840856	-64.2667534026466
1095625000	0.497044280554553	-65.2492941740974
1106250000	0.516001414604187	-66.035977934601
1116875000	0.511849968464014	-66.7570681945841
1127500000	0.520510266921746	-67.1962715457644
1138125000	0.519467495725364	-67.4955708669144
1148750000	0.553159964811486	-67.7450663224137
1159375000	0.559568938366645	-68.2088990316223
1170000000	0.591335164251241	-68.6925029592254
1180625000	0.627406978602576	-69.3998429815641
1191250000	0.626544599814065	-70.4477584566586
1201875000	0.628507151447129	-71.3016450354346
1212500000	0.599642368804041	-72.1785827245933
1223125000	0.599432488844874	-72.9666900092545
1233750000	0.585598839264407	-73.5490741110617
1244375000	0.582628461162884	-73.9336814256941
1255000000	0.631097948330662	-74.3218142408995
1265625000	0.697043194882288	-74.4722176758198
1276250000	0.707768350858037	-74.8916636953221
1286875000	0.745791975487132	-75.6700096283922
1297500000	0.754250361154709	-76.5135768186689
1308125000	0.731758612569344	-77.5826890716598
1318750000	0.708316895680553	-78.8390114351772
1329375000	0.679698492348087	-79.7109107024852
1340000000	0.692341226756825	-80.6501035652648
1350625000	0.688341337633611	-80.9996236707853
1361250000	0.758845007187156	-80.9027213695762
1371875000	0.830156026858204	-80.9829046241859
1382500000	0.853299094407767	-81.1509299499525
1393125000	0.897290101617496	-81.8163411159081
1403750000	0.854502292661783	-82.9616085091227
1414375000	0.834452626272493	-84.4466428677596
1425000000	0.791559615631614	-86.1324215701687
1435625000	0.785957107277298	-87.8258700865341
1446250000	0.830400619801077	-88.4718390321838
1456875000	0.875813809508838	-88.4668751958085
1467500000	0.903317332858809	-88.159653985887
1478125000	0.929649019564596	-87.6964898039318
1488750000	0.933692886940555	-87.4410819763297
1499375000	0.91320329963388	-88.2549299334535
1510000000	0.865718486848525	-90.0321545020742
1520625000	0.853839943495392	-92.4209621701935
1531250000	0.852486525576891	-95.1913468440611
1541875000	0.928339131374639	-96.8714462820747
1552500000	0.946370228798494	-97.939564118692
1563125000	1.0019146358751	-97.388343996006
1573750000	1.03785696986478	-96.0911808609347
1584375000	1.01087378143604	-94.6645278433498
1595000000	0.982362199789945	-94.094157763332
1605625000	0.884909343594271	-95.1138397622839
1616250000	0.829533451780931	-97.7935182848011
1626875000	0.760268484788158	-101.663793061621
1637500000	0.771267331900104	-105.678193619676
1648125000	0.814785479637868	-108.697003329111
1658750000	0.90948452445523	-109.307727901786
1669375000	1.00579598041281	-107.956860750142
1680000000	1.03045163173884	-105.269361290124
1690625000	1.02297684999712	-102.627124811656
1701250000	0.971438522282523	-101.07704043124
1711875000	0.812172218451676	-102.196886182374
1722500000	0.652032764261199	-106.087829432157
1733125000	0.417159336043734	-112.324897910421
1743750000	0.216902608644937	-118.959207981489
1754375000	0.166915236223923	-123.240380154649
1765000000	0.294113900044438	-124.09383582928
1775625000	0.498848290736358	-121.433045189239
1786250000	0.687073799088029	-116.682384101285
1796875000	0.848192231593058	-111.89485026622
1807500000	0.914367483770227	-108.765208575528
1818125000	0.723275468773252	-109.406447445844
1828750000	0.114298608192581	-114.471800449953
1839375000	-0.967943168749955	-123.452482236852
1850000000	-2.13335778300875	-133.616023553508
1860625000	-2.634918279347	-141.18376571313
1871250000	-2.45985797022087	-143.276436113719
1881875000	-1.77000463967997	-139.305147208582
1892500000	-0.861749052929953	-131.626143848243
1903125000	0.0536921765956584	-123.227893374623
1913750000	0.741403887319545	-117.326410895342
1924375000	0.634829441014598	-115.802996243677
1935000000	-0.889582056909378	-114.974965033757
1945625000	-3.56661658149951	-110.018862018966
1956250000	-6.44690138143226	-102.246854750584
1966875000	-9.0534373240461	-97.5349137331497
1977500000	-10.1214044277271	-101.89420983419
1988125000	-8.46567110140179	-111.358410910397
1998750000	-4.96683742744055	-116.43691907111
2009375000	-1.58860121826223	-119.895363194316
2020000000	0.342478238701579	-123.324422069165
2030625000	0.76895436153644	-122.853554084079
2041250000	0.39811232246435	-117.09348387892
2051875000	-0.171196824361879	-108.266483961818
2062500000	-0.757807202354065	-99.3113780868575
2073125000	-1.28591512373021	-92.4738192917045
2083750000	-1.64900876915555	-91.5214367284869
2094375000	-1.65500156652837	-97.6438357917273
2105000000	-1.06014404091347	-109.531252752972
2115625000	-0.226216583509691	-121.784729334354
2126250000	0.4017476023932	-129.407136646966
2136875000	0.678365567430683	-130.81497526245
2147500000	0.689957953256729	-127.409430437101
2158125000	0.604755134562487	-121.801804055456
2168750000	0.455034071411499	-115.818436435039
2179375000	0.293549730753498	-111.805027159485
2190000000	0.113446902462937	-111.19347030227
2200625000	0.0197976422639426	-114.778869249563
2211250000	0.0168937146161539	-122.560560423981
2221875000	0.178115257851502	-130.870776439118
2232500000	0.355794587221825	-136.355018846712
2243125000	0.507330527624397	-137.964037459295
2253750000	0.580240865441117	-136.035786511929
2264375000	0.592695261899528	-132.584679096286
2275000000	0.587697318589155	-128.561709111523
2285625000	0.517130286333121	-125.60879660794
2296250000	0.469010212436799	-125.312216306327
2306875000	0.358161928276538	-128.044743612898
2317500000	0.247764276657963	-133.092572617726
2328125000	0.229620678655815	-139.173660556197
2338750000	0.257211135004276	-143.311233819238
2349375000	0.32091781038719	-144.911168396113
2360000000	0.357827263320156	-143.966439663643
2370625000	0.430341825554936	-141.573312982725
2381250000	0.473715103566734	-138.624867548275
2391875000	0.509435681825064	-136.444207475578
2402500000	0.498322572664223	-136.277482530495
2413125000	0.404050219637808	-138.165966865666
2423750000	0.281159330417464	-142.077718789409
2434375000	0.160881374176468	-146.63343453483
2445000000	0.11566746441936	-150.105212390982
2455625000	0.126485168837172	-151.74028448273
2466250000	0.180921233970858	-151.37990214359
2476875000	0.284950639670828	-149.614214715464
2487500000	0.404519429519649	-147.408470878174
2498125000	0.455758835599226	-145.792546773183
2508750000	0.438944885829047	-145.508780114307
2519375000	0.367907904845558	-146.820860659355
2530000000	0.201243506731567	-149.974804370809
2540625000	0.0541367034539887	-153.735513616057
2551250000	-0.0161928610811044	-156.906950705947
2561875000	-0.00553162838739272	-158.66135194757
2572500000	0.0699720073545161	-158.527885724978
2583125000	0.196693835543449	-157.013573860675
2593750000	0.303468223499976	-155.313384029219
2604375000	0.387158137528346	-153.846068264272
2615000000	0.358162400997469	-153.622129936625
2625625000	0.26788390654845	-154.860036905401
2636250000	0.138056208023811	-157.526673473493
2646875000	-0.0265080171105197	-160.826976273643
2657500000	-0.0828108468407553	-163.625759028696
2668125000	-0.0681892970698682	-165.247676871608
2678750000	0.036144773854382	-165.231664655268
2689375000	0.155448386169703	-164.163016256986
2700000000	0.241731253741346	-162.592397062852
2710625000	0.322264203468028	-161.493127440827
2721250000	0.319855823884619	-161.162981823574
2731875000	0.198916321032245	-162.427821161839
2742500000	0.0505159529061844	-164.807208766976
2753125000	-0.0468480509122625	-167.855399413511
2763750000	-0.095973750112858	-170.430228544871
2774375000	-0.0524055635876754	-171.766335532823
2785000000	0.0400590261959696	-172.002516480757
2795625000	0.139793072894649	-170.995391898603
2806250000	0.274833096432402	-169.773969034845
2816875000	0.271532594154439	-168.832129385914
2827500000	0.252844160827909	-168.852542993956
2838125000	0.177735016635691	-169.945209514771
2848750000	0.0818828998836389	-172.191579042992
2859375000	0.00134680162621617	-174.769884725189
2870000000	-0.0492456077267862	-177.223886135096
2880625000	-0.00399086763251523	-178.38758452626
2891250000	0.0447895354128736	-178.586549610255
2901875000	0.157508893565689	-177.749781584329
2912500000	0.243950379320161	-176.85007383481
2923125000	0.27942525780031	-176.215427903853
2933750000	0.260856052706646	-176.441349062505
2944375000	0.21422250183229	-177.401912082554
2955000000	0.156693400834807	-179.346522147086
2965625000	0.0869860182091545	178.252286423936
2976250000	0.0675730916978213	176.232628629465
2986875000	0.0915241756034585	175.111979889141
2997500000	0.141462647449633	174.757424423165
3008125000	0.193806427926777	175.275753319945
3018750000	0.27633358411059	175.892929300671
3029375000	0.322667274373188	176.415925336998
3040000000	0.355301164571805	176.31999144646
3050625000	0.314784832823402	175.281407100281
3061250000	0.281223754448722	173.510878072741
3071875000	0.205753500017251	171.456930361689
3082500000	0.156290091637416	169.623194736024
3093125000	0.165122608597095	168.172943999249
3103750000	0.194879170446676	167.831188380573
3114375000	0.262732269825704	168.027805490978
3125000000	0.343102635963527	168.542378109269
3135625000	0.430675090553234	168.880716242703
3146250000	0.48188230163725	168.904935414241
3156875000	0.484180673229489	167.998771477776
3167500000	0.413757662291707	166.407332507775
3178125000	0.327296760732314	164.463280414783
3188750000	0.262745970013999	162.618548386444
3199375000	0.245425053749286	161.172657803457
3210000000	0.268741173600692	160.757683470043
3220625000	0.374389128879566	160.716487823577
3231250000	0.481081605739307	161.179101777118
3241875000	0.569710315252364	161.555721722769
3252500000	0.61836817394101	161.740979986999
3263125000	0.593797022282982	160.838131375718
3273750000	0.525198333478	159.491658881315
3284375000	0.419258723625118	157.297730144237
3295000000	0.348112282798612	155.288975137801
3305625000	0.326093242972449	154.001998170535
3316250000	0.386516090211495	153.204492950802
3326875000	0.484089995939731	153.392616424184
3337500000	0.622046714213304	153.907727814993
3348125000	0.715625597640151	154.294807415116
3358750000	0.732661094535574	154.351071813431
3369375000	0.722636363352467	153.697768358505
3380000000	0.603137297882415	151.95031495996
3390625000	0.514841838612183	150.016213819624
3401250000	0.443981584686326	148.151900996116
3411875000	0.480266906396924	146.612509505598
3422500000	0.531622211070514	146.065882650507
3433125000	0.613931754676564	146.345592586975
3443750000	0.754731796311852	146.755932086336
3454375000	0.833969924878845	147.200945007585
3465000000	0.843117181467719	147.126319553255
3475625000	0.786406246432687	146.290445146934
3486250000	0.679050398973389	144.624831126728
3496875000	0.611165722448961	142.807139575198
3507500000	0.554348197821554	140.758814810444
3518125000	0.600948422888248	139.596115819747
3528750000	0.634659556746772	139.013201627753
3539375000	0.750962454450819	139.146168097613
3550000000	0.840729113195146	139.540183175216
3560625000	0.895711510461752	139.902201774411
3571250000	0.85327301035049	139.674342103552
3581875000	0.841540208500486	138.743705679089
3592500000	0.755717295402444	137.272951402715
3603125000	0.728865891137232	135.424084597125
3613750000	0.700799394500758	133.777362300413
3624375000	0.709404043895527	132.515081376492
3635000000	0.776478953287848	132.175399962157
3645625000	0.862212865300795	132.258394371877
3656250000	0.895789284956447	132.365416186554
3666875000	0.948722198081068	132.626591427261
3677500000	0.939514568771553	132.233092290343
3688125000	0.933761975889592	131.435192265715
3698750000	0.862944911605083	130.107512496034
3709375000	0.841719666084677	128.382795167996
3720000000	0.805718867671843	126.959767313396
3730625000	0.77872878262757	125.828569983747
3741250000	0.820201215390679	125.136129111046
3751875000	0.88376746712257	125.237707968143
3762500000	0.952151049427128	125.35823374279
3773125000	0.982990564608492	125.523334929349
3783750000	1.01809896717406	125.166381865012
3794375000	0.980131646963298	124.352124459862
3805000000	0.975018491772735	123.1024679298
3815625000	0.893307243879273	121.68438839958
3826250000	0.866893441013283	120.208001015483
3836875000	0.856319493225936	119.224009137039
3847500000	0.849214198771727	118.424502541318
3858125000	0.891545042279355	118.24677845314
3868750000	0.966112167329335	118.189118903383
3879375000	1.03604320684983	118.213292640636
3890000000	1.07103063237098	118.103205455035
3900625000	1.09016079813813	117.492278249696
3911250000	1.04440224206049	116.453634193948
3921875000	0.966401553938303	115.136057651609
3932500000	0.903903309042336	113.687105976708
3943125000	0.84129575202144	112.324091561868
3953750000	0.867531923211414	111.533583140054
3964375000	0.905170897868664	111.20415166722
3975000000	1.00519985604539	111.227582687112
3985625000	1.07505475116395	111.47306127039
3996250000	1.1353024076973	111.424042840072
4006875000	1.13261886409548	111.10413600824
4017500000	1.07144427561632	110.275001775264
4028125000	0.971761859252431	108.630561914734
4038750000	0.867441452666867	107.043534572516
4049375000	0.823592494251516	105.634220411524
4060000000	0.856874392802316	104.715408719488
4070625000	0.926556609661284	104.478650353165
4081250000	1.00813023815886	104.752397607908
4091875000	1.12137626018829	104.848808332009
4102500000	1.13562251185222	105.141826465726
4113125000	1.12614860779964	104.537441328649
4123750000	1.02959948484407	103.594286428278
4134375000	0.910165911426354	102.115288984612
4145000000	0.820659804927943	100.509298359148
4155625000	0.816868301397514	99.0501104979379
4166250000	0.847147998835666	98.2383681731808
4176875000	0.948574646780791	98.0916039964326
4187500000	1.02494324903428	98.2548164699649
4198125000	1.08350111410563	98.7075725317736
4208750000	1.10417592066329	98.6986137745861
4219375000	1.04929647286027	98.2726770708142
4230000000	0.956994392470957	97.0645923323277
4240625000	0.880076213629806	95.5369499212727
4251250000	0.809897802791083	94.1005669349848
4261875000	0.799745416997915	92.8356927325253
4272500000	0.85582831962822	92.1172769460665
4283125000	0.91517595883611	91.9896555072615
4293750000	1.00300922955182	92.1769189597448
4304375000	1.00550228470123	92.3247908888849
4315000000	1.0156801984675	92.3756206122035
4325625000	0.978406734834474	91.7336992670954
4336250000	0.906291773030384	90.6465096510262
4346875000	0.830053324222762	89.2088387919293
4357500000	0.791513872874433	87.8758364660276
4368125000	0.784030348447283	86.692783640621
4378750000	0.822188918114259	86.1105950336482
4389375000	0.850383596244922	86.0164933149655
4400000000	0.89881319282072	86.1566565586152
4410625000	0.93095245825486	86.198029940845
4421250000	0.933994640281539	85.9041720787111
4431875000	0.895695491507297	85.4516453009548
4442500000	0.838182834849873	84.2578791924967
4453125000	0.804924503756424	83.0160213682027
4463750000	0.768964717988355	81.8992245994986
4474375000	0.707813746181991	80.8456357032935
4485000000	0.718736102519095	80.282601911476
4495625000	0.75319901638399	79.8616355894421
4506250000	0.77880199028068	79.777608186383
4516875000	0.823486466728106	79.6650414798252
4527500000	0.83150782236007	79.5134618707508
4538125000	0.856065057576691	79.0668821876497
4548750000	0.802174075895617	78.1401196767085
4559375000	0.737047050278065	77.2386251818622
4570000000	0.703387932291951	75.8653736492024
4580625000	0.638181663839102	74.9349022501247
4591250000	0.627718383159636	74.2080005536944
4601875000	0.637793038763769	73.4381869189302
4612500000	0.672305710273851	73.376156797637
4623125000	0.718279396233756	73.1918444905149
4633750000	0.750010424433874	73.1494075501772
4644375000	0.75990412539529	72.826009544478
4655000000	0.711277224000096	72.202717037475
4665625000	0.630661415447709	71.2600221656465
4676250000	0.581576038723948	70.0395461332646
4686875000	0.504659214838466	68.9254233979045
4697500000	0.498973890508017	67.8502138592224
4708125000	0.496581459411511	67.2060921652098
4718750000	0.579532578574705	66.932105625652
4729375000	0.641013448856368	66.9450955594113
4740000000	0.695392998448052	66.8969296752367
4750625000	0.685911727330941	66.7621825249839
4761250000	0.6462058165458	66.1236055571003
4771875000	0.542534492106146	65.2422116018988
4782500000	0.447411586698317	63.9282899888956
4793125000	0.367918754499182	62.6557614284634
4803750000	0.374615386095486	61.4875982110608
4814375000	0.415110801135115	60.9071417825349
4825000000	0.47871282230531	60.7336200530043
4835625000	0.532537795489025	60.6747425095622
4846250000	0.584158599510031	61.0424262518643
4856875000	0.577176240152277	60.8391447662357
4867500000	0.508347851986933	60.0942373012529
4878125000	0.412852450550906	59.1089383384551
4888750000	0.320534011822323	57.6940210102684
4899375000	0.269439601655853	56.3285128466904
4910000000	0.248533716723889	55.2660336862796
4920625000	0.322411295375339	54.7975512232204
4931250000	0.391183167430856	54.503628799816
4941875000	0.441592564766948	54.6006975201906
4952500000	0.471765129817528	54.7369298378942
4963125000	0.443060303116592	54.4730789281425
4973750000	0.377144746490488	53.7139805995684
4984375000	0.286964012460625	52.6274906781538
4995000000	0.221457071895967	51.168524062755
5005625000	0.170225962389376	50.104739141953
5016250000	0.152922448828501	49.0859419472465
5026875000	0.260396317907885	48.8613326823339
5037500000	0.292356854247935	48.4596066622321
5048125000	0.364271246732641	48.5017690518245
5058750000	0.354587657125886	48.4904359150571
5069375000	0.32940596203363	48.1108000577673
5080000000	0.272313638921062	47.2129332587071
5090625000	0.200898748010876	46.1243508821078
5101250000	0.147531524903578	44.8651293649901
5111875000	0.100542262814344	43.6909698956755
5122500000	0.165039282504295	42.9162520504884
5133125000	0.2089151969374	42.2912488390076
5143750000	0.193794478891394	42.2829467588382
5154375000	0.228439660758206	42.0991593076243
5165000000	0.243147490329029	41.861853476295
5175625000	0.213562935791061	41.3073771997898
5186250000	0.187966292891732	40.6623001015307
5196875000	0.151187379576406	39.8033652005302
5207500000	0.0858051243040501	38.578234548457
5218125000	0.0828869883875918	37.5183394137998
5228750000	0.0641090774600257	36.6221111780159
5239375000	0.0494377922062719	35.9960742172395
5250000000	0.0943320686478538	35.7053363363292
5260625000	0.122709032093495	35.4705477919832
5271250000	0.154579919166138	35.1735729507957
5281875000	0.162930146549668	34.7776152728266
5292500000	0.128564198293163	34.073575221156
5303125000	0.119789008739468	33.1323713810672
5313750000	0.00951099773673625	32.5891196751746
5324375000	-0.0288661245317382	31.1133438993621
5335000000	-0.0209243172266706	30.1423561687638
5345625000	-0.0244957785059497	29.5554235877478
5356250000	0.00929968273889533	28.8932713331943
5366875000	0.0676399434030309	28.8487574496746
5377500000	0.122674423531052	28.5248131322722
5388125000	0.147283935350075	28.2350890131911
5398750000	0.113841710593474	27.3891377005887
5409375000	0.0877029474278964	26.7399505533342
5420000000	0.0229875908966893	25.9344312161671
5430625000	-0.0686027688388191	24.8467743699746
5441250000	-0.0899750633896106	23.7542621919715
5451875000	-0.0618789692212105	22.9619287165029
5462500000	-0.00457432563456273	22.4058274344705
5473125000	0.0557606377998949	22.170173104043
5483750000	0.0704832742980503	21.9264668973368
5494375000	0.162799000080239	21.6604649893624
