!Keysight Technologies N9917A: A.09.53
!Date: Thursday, 10 October 2019 13:35:32
!TimeZone: (UTC-08:00) Pacific Time (US & Canada)!Model: N9917A
!Serial: MY56072049
!GPS Latitude: 
!GPS Longitude: 
!GPS TimeStamp: 0001-01-01 00:00:00Z
!GPS Seconds Since Last Read: 0
!CHECKSUM:0163027284
!Correction: S11(ON U)
!S1P File: Measurement: S11:
# Hz S DB R 50
1000000000	-0.0661164719050377	117.561073045049
1010625000	-0.0977733549822955	116.89787506756
1021250000	-0.135925938596553	115.951233023477
1031875000	-0.15029107841078	115.097951060016
1042500000	-0.149313638746155	114.022088860464
1053125000	-0.159251819328435	112.922091151897
1063750000	-0.131475966480832	112.249473309951
1074375000	-0.124855098644285	111.700549747171
1085000000	-0.12712465604151	111.392631595513
1095625000	-0.112043521329078	111.043022940059
1106250000	-0.117970835230447	110.905555318616
1116875000	-0.121608042222744	110.371964061945
1127500000	-0.121333804746534	109.393126922279
1138125000	-0.131882268671436	108.459629288914
1148750000	-0.134753895585115	107.337088753138
1159375000	-0.153670397326663	106.161329001482
1170000000	-0.166365487653374	105.470415956295
1180625000	-0.181914733358489	104.939920720011
1191250000	-0.175151834376512	104.537730919939
1201875000	-0.180752375968892	104.274883780035
1212500000	-0.136700390659523	104.003895355681
1223125000	-0.10661170410436	103.403991096743
1233750000	-0.0792707188033256	102.919882799529
1244375000	-0.090613745217014	101.65020510021
1255000000	-0.117647426223035	100.651928531456
1265625000	-0.161146019554131	99.4314107708195
1276250000	-0.184998979487977	98.4021238480431
1286875000	-0.210935912660911	97.7818258131897
1297500000	-0.202286920729902	97.4164722594732
1308125000	-0.155996885921582	97.1577141960147
1318750000	-0.103514939528362	97.1858933778377
1329375000	-0.0751697700820211	96.866227942379
1340000000	-0.0649235887898969	96.2884699120002
1350625000	-0.0675280570120427	95.1669393631465
1361250000	-0.1124808202759	93.626167419813
1371875000	-0.184225110922119	92.1810448777879
1382500000	-0.220918049848632	90.8486414252247
1393125000	-0.210064196863864	89.9614504038144
1403750000	-0.177526518098088	89.7034455077307
1414375000	-0.121808379790395	89.9624213345889
1425000000	-0.0701637796248766	90.2254393526227
1435625000	-0.0295315358681532	90.3433673743333
1446250000	-0.0418310274535273	89.71646223481
1456875000	-0.0912478372745542	88.3669714815096
1467500000	-0.170694215650888	86.3765398387323
1478125000	-0.233622528235262	84.075964796988
1488750000	-0.232196851690911	82.2174950400839
1499375000	-0.207851260449968	81.3585911032588
1510000000	-0.160990547613772	81.484134724433
1520625000	-0.0759545987740484	82.2483615971741
1531250000	-0.0221524228436419	83.2914680597813
1541875000	-0.0120695525554136	83.786417464712
1552500000	-0.0657913095291402	83.2237698737078
1563125000	-0.170947566250948	81.2942737716901
1573750000	-0.28642865439557	78.4099430436889
1584375000	-0.359138923534572	74.9744396609245
1595000000	-0.368874144319186	72.7034601238494
1605625000	-0.301885740261119	71.5683212189073
1616250000	-0.188055307276216	72.3357425352131
1626875000	-0.0888920997579813	74.1496185026043
1637500000	-0.0354051259300813	75.9605970901479
1648125000	-0.0203909628873638	77.1482843581977
1658750000	-0.11165971518134	76.6077148104171
1669375000	-0.293908204401621	73.9382628008939
1680000000	-0.548687965159254	69.4137118335479
1690625000	-0.738933412224104	64.5656379302947
1701250000	-0.800180002858123	61.0492897921509
1711875000	-0.707322695458089	60.0957735561045
1722500000	-0.517590901339211	61.6689615757231
1733125000	-0.314099764084116	64.7660947541194
1743750000	-0.13054084400351	68.1120752470445
1754375000	-0.0608168553349941	70.4076104827155
1765000000	-0.18943261321102	69.9407259510273
1775625000	-0.585365672099339	66.5071737182724
1786250000	-1.30874003670686	60.0200340184405
1796875000	-1.97606856109783	52.7114919628853
1807500000	-2.29156122365059	47.2364393492427
1818125000	-2.15047358042519	45.766237109743
1828750000	-1.72312979194765	48.4095651350325
1839375000	-1.15005453787548	53.5081586840846
1850000000	-0.559360478838247	59.1386639377899
1860625000	-0.141379575845974	62.9989966639684
1871250000	-0.251829762349654	63.5932170900151
1881875000	-1.28049004762879	61.7990488494595
1892500000	-3.37267583825247	59.5173549430246
1903125000	-5.90973594528065	56.7984043742593
1913750000	-7.75136153029932	51.7701821157027
1924375000	-7.95810743223171	46.3402803678294
1935000000	-6.4660529308361	46.2341941892198
1945625000	-4.20287979676721	50.7008609966528
1956250000	-1.94150143477601	55.1020776217577
1966875000	-0.383205320772125	56.4855390801359
1977500000	-0.0900278122613097	57.639719574456
1988125000	-0.684949772692571	62.8208883913951
1998750000	-1.58710718129365	71.7016509850129
2009375000	-2.48063865475647	81.5293201122546
2020000000	-3.24145964228442	88.6048162133153
2030625000	-3.79553057106446	89.6094175842688
2041250000	-3.63101210485189	82.7512397232723
2051875000	-2.57482497990494	69.9549739141912
2062500000	-1.19336802774653	58.3519254448834
2073125000	-0.286562313190793	51.4118043421576
2083750000	0.00887099165258849	50.5353375920987
2094375000	0.00150975558499638	54.4212517121023
2105000000	-0.160694227802033	60.6907160165025
2115625000	-0.348788904060465	67.3486604064281
2126250000	-0.581023333364033	71.9932504522825
2136875000	-0.758574243983568	72.9805680698965
2147500000	-0.866635710672667	68.5597141908473
2158125000	-0.757453691165032	59.9167394514519
2168750000	-0.451333569987934	50.8568599873611
2179375000	-0.159199735901018	45.114095918243
2190000000	0.028937249527347	43.9492516160783
2200625000	0.104716110027505	46.2558169832877
2211250000	0.116726300911723	50.445348110823
2221875000	0.0922020725680691	55.04417119089
2232500000	0.0308177458187979	58.2439315208759
2243125000	-0.0509024771194476	58.7601007671178
2253750000	-0.167323688663414	55.6054149836941
2264375000	-0.232156983979538	49.5976738940513
2275000000	-0.196739854681894	43.0988702561521
2285625000	-0.109586181767415	38.6645698424724
2296250000	0.00356655501564473	37.3077155521494
2306875000	0.0800406945183857	38.744924313623
2317500000	0.157673837406294	41.7088037198972
2328125000	0.202231206135745	45.1087199864133
2338750000	0.226958305243843	47.5512117724602
2349375000	0.184936619253326	47.8762851642143
2360000000	0.0946083181749686	45.5484949684209
2370625000	-0.0178002138052248	41.3150229709637
2381250000	-0.0844371161877668	36.1593058751169
2391875000	-0.0860714770544477	32.3362492162383
2402500000	-0.0508649576119589	30.7759437200059
2413125000	0.0334124851920285	31.5151485027478
2423750000	0.14034911722909	33.7113824378034
2434375000	0.22017239090704	36.2298875120218
2445000000	0.310969200999934	38.203362639129
2455625000	0.293327790924623	38.5604346060089
2466250000	0.233139367860922	37.0172240281907
2476875000	0.0799972719956893	33.3725545306593
2487500000	-0.0239420558561847	29.1902526586157
2498125000	-0.100735034434473	25.8116105726686
2508750000	-0.0620531770591824	24.1507104454869
2519375000	0.0204592281992308	24.345435927872
2530000000	0.153631715376939	25.8952549179449
2540625000	0.275534802567939	28.1551061001649
2551250000	0.372589470147379	29.9552661062695
2561875000	0.35891333034849	30.36389290614
2572500000	0.265530262684746	29.0647838188615
2583125000	0.0981018527102056	25.8949910089076
2593750000	-0.0422264753753686	22.3181147402592
2604375000	-0.122789863543029	18.9889806694582
2615000000	-0.0926562590740044	17.4312861212852
2625625000	0.0119144376412042	17.3730209360715
2636250000	0.164953862137915	18.8119931456792
2646875000	0.299227633748722	20.7728044532581
2657500000	0.393201281869262	22.1876368019798
2668125000	0.377150552661999	22.7330741309446
2678750000	0.247830593523168	21.3849787302675
2689375000	0.0804249444668173	18.8035380039185
2700000000	-0.0412674284885575	15.3217211203239
2710625000	-0.122852819025898	12.2116461541527
2721250000	-0.0662263747306036	10.7215976537053
2731875000	0.0349187830877454	10.7375329039884
2742500000	0.175225693918519	11.8552206731545
2753125000	0.305814982780596	13.4659724677673
2763750000	0.32399880916532	14.8126622190206
2774375000	0.327909103193304	15.0493896592669
2785000000	0.230544431729227	13.9811842742911
2795625000	0.0772208290856056	11.4494465621359
2806250000	-0.0437015272776349	8.33697046940931
2816875000	-0.0843560588204909	5.79186623452356
2827500000	-0.0459299239941815	4.05720806492239
2838125000	0.0397960067429578	4.10573603899282
2848750000	0.178020390492388	5.07944127978516
2859375000	0.260364387734777	6.37195980531732
2870000000	0.290028938979703	7.5267623815422
2880625000	0.273045884430341	7.60294742531008
2891250000	0.2174715541663	6.53392711150041
2901875000	0.102082747009418	4.33170811701748
2912500000	-0.00719835736709418	1.50592149619237
2923125000	-0.0338479258736443	-0.625120969126162
2933750000	-0.00679981137665442	-2.11122961978609
2944375000	0.0245780044876093	-2.37348206505882
2955000000	0.129236549658961	-1.92151486117771
2965625000	0.192621516661267	-0.715416683621075
2976250000	0.248233938947479	0.0479513339902043
2986875000	0.274917924895584	0.0555227676213106
2997500000	0.235982172797731	-0.719795226924525
3008125000	0.153347418590695	-2.58645637482541
3018750000	0.0491326964004212	-4.91623421301921
3029375000	-0.0183078252988827	-7.18444084951027
3040000000	-0.0307295863503183	-8.57902863905288
3050625000	0.00913218696117366	-9.10205211190213
3061250000	0.0777747844197185	-8.67728514113227
3071875000	0.173332642504257	-7.91796641260985
3082500000	0.240554699309404	-7.18539233774578
3093125000	0.270626720648418	-7.11215524819881
3103750000	0.25110887959395	-7.867363823473
3114375000	0.167895645259014	-9.51561704422575
3125000000	0.0785140238711554	-11.4980445307017
3135625000	-0.0113817489191784	-13.682467754565
3146250000	-0.0558057162591706	-15.0323239316169
3156875000	-0.0324954454637517	-15.6699321847773
3167500000	0.0336696898077136	-15.5647845543458
3178125000	0.14284708587221	-15.0562273305457
3188750000	0.236585462282317	-14.4315965867249
3199375000	0.294667182865225	-14.206719316295
3210000000	0.257650524671437	-14.7955775517596
3220625000	0.180902390718167	-16.1367717129028
3231250000	0.0785981311193291	-18.1361991251295
3241875000	-0.0368097301040785	-20.0751755233157
3252500000	-0.0834765769852945	-21.7155691593838
3263125000	-0.0435345932215853	-22.4886031533641
3273750000	0.0368471050085374	-22.4877844631158
3284375000	0.127929570930378	-21.9203087426799
3295000000	0.239388474630638	-21.3625350481703
3305625000	0.293046158143878	-21.0421499634552
3316250000	0.256593707946605	-21.6093632494502
3326875000	0.161469213032323	-22.9444693643253
3337500000	0.0339552835296835	-24.8220302184756
3348125000	-0.0726902763742638	-26.8159288303854
3358750000	-0.105163037749486	-28.5131253246514
3369375000	-0.0385950086812133	-29.1853047145336
3380000000	0.0461233148109662	-29.1240904408356
3390625000	0.154264537445526	-28.6056564582898
3401250000	0.262667912069116	-28.0033934665411
3411875000	0.271325387770838	-27.8768491509097
3422500000	0.225768487514269	-28.4760964656356
3433125000	0.117604102236281	-29.8408072207673
3443750000	0.0117231002408536	-31.7548179178985
3454375000	-0.0755613531518315	-33.7300333837634
3465000000	-0.091032248880218	-35.1343761812064
3475625000	-0.0302630581363113	-35.6947803059921
3486250000	0.0715808093651492	-35.6595897155285
3496875000	0.14258231903822	-35.3243164887942
3507500000	0.219596275549135	-34.848479020023
3518125000	0.230132644401079	-34.7637750273553
3528750000	0.171428942189514	-35.4813139264394
3539375000	0.0741640005862423	-36.7789611208922
3550000000	-0.0143180585122715	-38.6085556774491
3560625000	-0.0338598270318826	-40.4115977839183
3571250000	-0.0433493327405493	-41.6856618545013
3581875000	-0.00473294454249584	-42.1616397462508
3592500000	0.0657263086727936	-42.2012607356714
3603125000	0.130722827818407	-41.9820551509162
3613750000	0.165001132379299	-41.638086892917
3624375000	0.177234380204504	-41.7083328622832
3635000000	0.136837677415926	-42.5268049034061
3645625000	0.0779224317077563	-43.5509331538995
3656250000	0.022913378055747	-45.1809518371877
3666875000	-0.0245387304436152	-46.7783971683357
3677500000	-0.00894305881842262	-48.0272137086573
3688125000	-0.0270527979621614	-48.6116624214304
3698750000	0.060955756781476	-48.7706132019627
3709375000	0.103514463974452	-48.6992037722085
3720000000	0.128515660333389	-48.5677168078286
3730625000	0.155982553303512	-48.802007945282
3741250000	0.128488644180299	-49.4373795275074
3751875000	0.0996984752357881	-50.3916104991523
3762500000	0.0599356098365683	-52.0025128681284
3773125000	0.00310864735058861	-53.2567727457845
3783750000	-0.0167284230938015	-54.3057757560286
3794375000	-0.0175677533400712	-55.0542293669551
3805000000	0.00494578769818272	-55.4841796262508
3815625000	0.0451172902602949	-55.5349570517622
3826250000	0.10564868460285	-55.3976658372272
3836875000	0.124335253214621	-55.6734843054274
3847500000	0.13820745115316	-56.1292468873236
3858125000	0.134684305155884	-56.9307525111109
3868750000	0.053026491815575	-58.2467307373441
3879375000	-0.0191655272425341	-59.5905274543742
3890000000	-0.0456926082447549	-60.9867060526326
3900625000	-0.0587814859039331	-61.8953201027683
3911250000	-0.0100502606574843	-62.2377583158345
3921875000	0.0283702052540892	-62.3692975899892
3932500000	0.0965194979485634	-62.1920776955539
3943125000	0.156574609975114	-62.3250741966676
3953750000	0.159707678002334	-62.7932970629886
3964375000	0.119362864194029	-63.6327239871247
3975000000	0.044915659630097	-64.8101678593671
3985625000	-0.0236175643464481	-66.2523724037192
3996250000	-0.0789529243407004	-67.4989026115665
4006875000	-0.0745851748201491	-68.5665839219308
4017500000	-0.0216892368901855	-68.857013599379
4028125000	0.0565337877659639	-69.1511578017771
4038750000	0.122275983858809	-68.8999510374315
4049375000	0.187046562087238	-69.0355828503316
4060000000	0.130122478488356	-69.2169516926978
4070625000	0.123023820882599	-70.0617364736072
4081250000	0.030100127035695	-71.4850444139825
4091875000	-0.0587125257348448	-72.912497853999
4102500000	-0.0983731492101604	-74.2863033793322
4113125000	-0.0700426051242691	-75.134689823904
4123750000	-0.015911517014454	-75.6045998196577
4134375000	0.0545225727810316	-75.5742332145064
4145000000	0.142677702280401	-75.3809215355773
4155625000	0.164455921046047	-75.453286790761
4166250000	0.152732407355942	-75.8770063378338
4176875000	0.0765066076274644	-76.8412976257164
4187500000	0.00216796753590578	-78.1955814388598
4198125000	-0.0709956444469804	-79.6431428845766
4208750000	-0.0956067784997377	-80.8286769850859
4219375000	-0.0467522304063785	-81.5305562455162
4230000000	0.0236430374789574	-82.0141054717694
4240625000	0.0944940348660337	-82.0202881498842
4251250000	0.147413884699937	-81.8207313291985
4261875000	0.143576706878631	-81.9793671006264
4272500000	0.127915396917463	-82.6281095546232
4283125000	0.0568309345564034	-83.5514138295149
4293750000	-0.0144879431605429	-85.0276831564792
4304375000	-0.0381368890101977	-86.3126520385581
4315000000	-0.0688989696368622	-87.3661384123964
4325625000	-0.0132639565556338	-88.1847623849719
4336250000	0.01726179274037	-88.4759644173747
4346875000	0.0781188285109364	-88.4886593265986
4357500000	0.116952868873958	-88.5379127625171
4368125000	0.126291076663966	-88.8437904325596
4378750000	0.0940441656544261	-89.4757736077182
4389375000	0.0564559812037278	-90.4736597186489
4400000000	0.0218092685435693	-91.6418102605916
4410625000	-0.0059332799419067	-92.7664485568663
4421250000	-0.0208058523003178	-93.7641949520393
4431875000	-0.029558216336976	-94.5065735822683
4442500000	0.0335870609326946	-94.9004171188273
4453125000	0.0654041097195241	-95.2190018069484
4463750000	0.0827541070723499	-95.3188157619184
4474375000	0.0989764786733675	-95.6022926155264
4485000000	0.0998229305307232	-96.2778783842873
4495625000	0.0743247634170577	-97.0225191349305
4506250000	0.0283706898360132	-98.0562588585667
4516875000	-0.0254472567572981	-99.0719022306714
4527500000	-0.036132107134555	-100.232627723325
4538125000	-0.0409264783477182	-100.952038226636
4548750000	-0.0137934274012764	-101.525481397158
4559375000	0.0379453997418582	-101.886984886074
4570000000	0.103249945618909	-102.189425365933
4580625000	0.10698440497242	-102.366243519563
4591250000	0.134654128301251	-102.854726116272
4601875000	0.115299627540997	-103.498869382811
4612500000	0.061719045270895	-104.480180412324
4623125000	0.00164092215053981	-105.477893071642
4633750000	-0.049868807341184	-106.75052300155
4644375000	-0.0552191509204907	-107.558212882297
4655000000	-0.0205608517091484	-108.317956039621
4665625000	0.0280741209856345	-108.704987953884
4676250000	0.112689208431204	-108.833539406364
4686875000	0.134045575475931	-109.034229099165
4697500000	0.163745066321152	-109.323546148305
4708125000	0.125658521382019	-109.969175107769
4718750000	0.0553214527163329	-110.893101221239
4729375000	-0.0149749540463372	-112.01125301296
4740000000	-0.0579950486673468	-113.279896992409
4750625000	-0.070826850434767	-114.255547509215
4761250000	-0.043551534761908	-114.875858598471
4771875000	0.0497265989205143	-115.295476871684
4782500000	0.130398675376896	-115.394682769187
4793125000	0.135301331546986	-115.330533719745
4803750000	0.16427738702712	-115.742452725482
4814375000	0.121061376509329	-116.37940698368
4825000000	0.0458929151783048	-117.43884946773
4835625000	-0.0356253112618203	-118.669625393635
4846250000	-0.0706701458493049	-119.977043900675
4856875000	-0.0788983109300265	-120.957161469141
4867500000	0.00639518839040719	-121.481723543893
4878125000	0.0789188150844261	-121.876644204257
4888750000	0.124788991585808	-121.791823913117
4899375000	0.18800102492157	-121.864642930153
4910000000	0.166717512264785	-122.227817550829
4920625000	0.109388532567106	-122.939490922375
4931250000	0.0213096565253261	-124.095623941565
4941875000	-0.040673766527918	-125.305749913741
4952500000	-0.0789333788688969	-126.600025438796
4963125000	-0.0585426358959143	-127.699499948802
4973750000	0.0230772779708187	-128.041057148521
4984375000	0.0586670336539253	-128.242924215969
4995000000	0.144771310735005	-128.301742572556
5005625000	0.159544684059466	-128.407844827217
5016250000	0.154156136148727	-128.830588235025
5026875000	0.102374662409088	-129.595573285384
5037500000	0.033530897140793	-130.72565837893
5048125000	-0.0397847862685831	-132.00269558851
5058750000	-0.0217748985687009	-133.259171362818
5069375000	-0.0359067236492232	-133.961695031367
5080000000	0.0215246479313122	-134.27520345443
5090625000	0.0995364485021513	-134.509935901039
5101250000	0.128952449631373	-134.793735361561
5111875000	0.146944596811253	-134.98938453606
5122500000	0.14043623938885	-135.558093114077
5133125000	0.0958927653337152	-136.241656483448
5143750000	0.0363140682247449	-137.315277741617
5154375000	0.00232358035748021	-138.523561045803
5165000000	-0.0255537689123913	-139.560392110123
5175625000	-0.0674269890847352	-140.267986912132
5186250000	0.0328904496763178	-140.96265064159
5196875000	0.0462533738787764	-141.372184166113
5207500000	0.093591293479114	-141.468773457193
5218125000	0.122832442151802	-141.784275126329
5228750000	0.160147700083013	-142.225566245597
5239375000	0.137590665467267	-142.935889385885
5250000000	0.0775195985239672	-143.68565504543
5260625000	0.0464008325333445	-144.855223708307
5271250000	-0.0322318981862651	-145.826218878089
5281875000	-0.00326757060982289	-146.681689040102
5292500000	-0.0228278997535188	-147.428249791285
5303125000	0.0317241219901448	-147.885152861541
5313750000	0.0902336348779371	-148.213062974215
5324375000	0.139870586718727	-148.493740353219
5335000000	0.173233174550808	-148.757498093289
5345625000	0.157648936927961	-149.478850375057
5356250000	0.0874330224198782	-150.234088904079
5366875000	-0.000454506119914434	-151.357269646704
5377500000	-0.0259122804994471	-152.262064272457
5388125000	-0.06173792441754	-153.341880553568
5398750000	-0.0218134312996988	-154.150821006552
