!Keysight Technologies N9917A: A.11.27
!Date: Saturday, 26 October 2019 06:42:03
!Timezone: (UTC-08:00) Pacific Time (US & Canada)
!Model: N9917A
!Serial: MY56072049
!GPS Latitude: 
!GPS Longitude: 
!GPS TimeStamp: 0001-01-01 00:00:00Z
!GPS Seconds Since Last Read: 0
!CHECKSUM:1156567375
!Correction: S11(Rdy)S21(Rdy)S12(Rdy)S22(Rdy)
!S2P File: Measurements:S11,S21,S12,S22:
# Hz S DB R 50
1000000000	-2.98323171584237	-18.8198568378081	-30.4411571907499	103.890956324237	-30.3374592958926	102.007304303068	-2.33258691739658	-7.52664476519409	
1085000000	-3.76777592985477	43.1252143845589	-30.7099416844651	109.624567812219	-30.6955594374473	111.054466641294	-2.95297329608676	60.1199251874153	
1170000000	-4.67618426131084	105.672272708842	-29.8313365091008	124.872774366439	-29.6264632151836	124.084837989862	-3.65125229106022	132.496271397403	
1255000000	-6.13207951695698	168.779773042696	-29.321066490937	146.296982288589	-29.3704287055625	144.332738884802	-4.09702699750677	-155.635887546737	
1340000000	-7.41420826837259	-127.364954028011	-28.6422937133313	157.551840441568	-28.8234527986314	155.895285595155	-5.0502597708022	-85.8701602718147	
1425000000	-9.13599204609025	-73.2250815936014	-27.3636097350631	159.811461194393	-27.4824407713399	160.669768343025	-6.47908220952724	-17.9894591511333	
1510000000	-12.0195508349145	-21.3582769431233	-26.3495134720193	157.446022903058	-26.4036997951594	157.45307502111	-8.83029169589261	58.1260450074935	
1595000000	-16.8542083828626	31.6712945487396	-25.9651009189986	160.782241491274	-26.055368844918	161.376832818172	-10.4790030177251	144.167671471148	
1680000000	-22.984390044906	102.844524224699	-26.3935969207039	150.500970550201	-26.4150628261183	150.753481788832	-10.4594878807047	-135.011244420921	
1765000000	-23.7539547253486	172.463466351453	-28.3047058824448	144.235651424282	-28.3788998934584	144.013503158418	-11.7564759049386	-61.5737425489431	
1850000000	-22.5052303684537	-153.498464942933	-31.0072364978011	147.089574627838	-31.0134574805978	147.685911010823	-13.226980485903	24.3427927185002	
1935000000	-22.6600565465313	-124.656137443339	-31.5724936893505	156.978624514916	-31.6710493770349	158.339937243863	-13.4693821025381	113.571438946432	
2020000000	-24.6756061927911	-93.41477504895	-32.6819884037018	150.088341237846	-32.5455773382313	152.671667607373	-12.7670548078471	-165.004208594622	
2105000000	-37.0755442866653	-57.4672237907636	-33.7027376747763	171.71302822044	-33.3307817626663	170.476796526968	-12.9796652089684	-91.9788797492822	
2190000000	-26.5961075121177	162.944993902797	-33.3253311527503	-178.508293050332	-33.2215706295378	-179.075652543188	-13.9282714018112	-6.11107219442859	
2275000000	-20.9715007042026	-151.685384944046	-33.7643412241697	-164.586752846119	-33.77889998538	-165.959178621248	-12.5992150515855	81.2673232662485	
2360000000	-20.27974914456	-101.635183474059	-34.9010068293742	-140.832610349542	-35.0140905618427	-140.839299690473	-11.169632976447	153.970831992538	
2445000000	-21.6480343821905	-28.1284052505638	-33.9756654849975	-119.712343320379	-33.8088485581109	-120.148576105071	-11.3780103265094	-139.198742675428	
2530000000	-20.5745385465663	63.4162330754884	-33.8273109792352	-97.7999809618663	-33.7297575112074	-99.1889062388881	-12.4058933189321	-66.6039174357471	
2615000000	-18.1552545527517	129.954861103823	-32.3901136058355	-77.4137354359843	-32.4681565722041	-77.4916857794431	-13.494394143054	14.7165182194953	
2700000000	-19.0150752918741	-163.920616078114	-32.2773188550451	-65.0203258012837	-32.288724653205	-65.5418955330577	-13.0008173203617	90.7416937124257	
2785000000	-21.84529207272	-72.7968769683687	-32.1070293649914	-44.2833972543796	-32.287133147456	-44.1183503795856	-13.5508431577961	155.912567478161	
2870000000	-19.223680830175	26.7061738237623	-32.1048795487245	-23.1514118820931	-32.0744534286242	-23.338003099867	-16.5508154325801	-134.606710991201	
2955000000	-16.2097951172466	98.1007550122635	-31.8251994314044	0.0104544054668586	-31.8618470687649	0.135060087933831	-19.8319868008414	-46.2591038418169	
3040000000	-15.653049143544	165.732737035424	-32.4659360870204	22.6304187460163	-32.4785964450391	22.0547769394832	-20.8445136784777	55.3520599424134	
3125000000	-15.8535501609387	-117.653633492803	-32.4904852514136	55.2658243393049	-32.5972664820049	55.0091181167804	-19.6504753940185	142.874151670595	
3210000000	-15.6668056420283	-38.1926803640727	-31.5342324332709	76.4542823718973	-31.7503150712201	77.8012079672129	-19.5403719947754	-132.032172987183	
3295000000	-15.0219373173757	36.413358104605	-30.7657805364429	101.428193728634	-30.7874596784456	102.072983316928	-18.1981664868781	-45.6895016900083	
3380000000	-15.8139183677405	106.661415096038	-30.0173785644014	119.729745255856	-30.016271151779	121.20013063145	-16.7306693813936	24.8630551380019	
3465000000	-18.302907798985	-170.953311114486	-29.8788091743751	140.947846731827	-29.6917714853207	141.414819105452	-16.9113074230512	86.9085364123859	
3550000000	-19.1276405204095	-67.5475804064067	-29.7318738381712	165.588023133452	-29.460703400979	164.958646812	-18.808808071725	145.972668742972	
3635000000	-16.5048354557712	19.6606082629889	-29.3475088045326	-172.751561499306	-29.3524345494894	-173.633863168231	-22.7285571517514	-145.942357223993	
3720000000	-15.2675583629807	97.8523914345885	-29.5930925197765	-145.70428824125	-29.5874491425077	-146.414274588614	-25.137235760897	-70.3739426278539	
3805000000	-14.2526557468991	178.082651012013	-28.9306932267644	-124.177037559685	-29.0373412877996	-124.687175095784	-29.3317407854252	-3.05097019515626	
3890000000	-13.3190615534863	-103.629259859977	-28.6463835117554	-99.8183287463464	-28.5740658272693	-99.6736912416743	-31.3480118448706	21.042598773153	
3975000000	-12.32442387498	-31.8582923534289	-28.1634667632972	-74.079499688982	-28.2152608620434	-75.2284530999316	-30.1444251425795	3.6753021649277	
4060000000	-12.4918768579431	41.5796636210656	-27.4406041039243	-52.2476020017042	-27.517406818769	-52.1673973253203	-29.4708174671674	65.919870556995	
4145000000	-12.8509191729455	118.893626946318	-26.7519704890135	-33.3208413574994	-26.941062523702	-33.5844741324246	-26.5421773604454	150.069752455948	
4230000000	-12.6611140078201	-161.981637024311	-26.6776716034449	-13.2446769208038	-26.6977308754189	-12.4476660349589	-22.5710268137231	-128.574797053172	
4315000000	-12.1863242025123	-88.3339420122431	-26.5596858291959	8.15574576132533	-26.5624915333579	7.57244307890675	-20.4727058106401	-69.5187697680273	
4400000000	-12.5487258452905	-17.2618849470941	-26.6120980047299	25.6300211829695	-26.6287306261368	26.2160261943503	-21.736649187184	-6.28531049220353	
4485000000	-13.9994728273	57.8661526790316	-26.6948575020381	46.7775760225854	-26.58961224544	45.8557705475544	-23.1923292510911	85.89894172501	
4570000000	-14.871587760392	141.303410857514	-26.5864307786259	70.6699035085682	-26.7698057136798	70.1022972469622	-20.2710417190871	179.556204146627	
4655000000	-14.5549122187631	-135.993413127138	-27.0304695566308	92.0484100776034	-27.0864606559039	91.7664783135826	-18.8069167942639	-113.101251741892	
4740000000	-14.5481487890593	-62.8755727417724	-27.2862669180203	112.110481268983	-27.4721255170181	113.725021255688	-19.0065314416686	-44.0137776708643	
4825000000	-15.7452220637863	16.8621624547568	-27.3039913590979	132.67942622778	-27.2517236440309	133.510580214134	-21.317718879815	31.0247854564303	
4910000000	-15.7161622139268	101.638815098179	-27.9564518786131	153.314462257271	-27.9451434625823	153.773928720005	-21.609838077103	125.197880438223	
4995000000	-15.2631602578781	177.827462045744	-27.9897704311879	178.675820255883	-27.875537523009	178.479133222758	-20.9270054732829	-147.668479599238	
5080000000	-15.7046661838061	-110.601284996042	-28.3454089813958	-162.16935832497	-28.1732663506727	-162.771452759864	-21.8216529655379	-68.7493682275579	
5165000000	-17.3954864191266	-32.5304213246433	-29.4979956960605	-137.153753085463	-29.2740822612252	-138.467895831966	-21.0064859362717	35.4874650785796	
5250000000	-17.6315267202998	58.2859557072526	-29.0303992888148	-113.936911275087	-29.1778120093464	-115.075071556531	-18.3442984368815	114.434727873379	
5335000000	-16.600012984597	141.433785788251	-30.0809819389782	-97.5070462990821	-30.0997810002017	-96.6747614551568	-16.7109905697896	-172.701414053161	
5420000000	-15.4466386565949	-146.624733723315	-31.3126800674359	-73.7607038834146	-31.4185021933413	-74.1870509511225	-16.8161150119918	-101.165163108434	
5505000000	-16.1658174873385	-78.8751739098796	-32.0650535330468	-46.9133305599047	-32.0005936660693	-46.584931337753	-17.3846942750644	-20.1539099875436	
5590000000	-17.7910085587463	-1.12548658088497	-32.6901226877425	-24.4669446852424	-32.6457652618874	-25.3559812235865	-16.9509720119527	59.0334560529567	
5675000000	-17.8811784908598	77.4906206594614	-34.4635676514944	1.77443460474222	-34.582127270924	0.872198178990101	-15.9618117605921	140.450177206529	
5760000000	-17.8218891662947	154.242203403703	-35.7559850722761	34.2264573205157	-36.1119908622556	32.3012360964801	-15.8752875585724	-148.898818901633	
5845000000	-18.5107147241468	-138.399590314789	-36.0177879090906	69.1991339052226	-36.4850218653812	71.9465150394367	-16.5359651041213	-74.5281128812399	
5930000000	-21.547473227914	-71.9220033496666	-36.684736329609	94.1145449528513	-36.2561241040863	95.1096406671282	-17.9495777365667	-0.838612582562741	
6015000000	-23.8784623641629	12.6882804832272	-36.7817726447066	134.839602702353	-36.901155207726	135.18598145279	-19.0809272921556	87.9029343211482	
6100000000	-23.5308191787041	91.228299402626	-35.6816766889657	166.611476693433	-35.6019689244023	166.876073689357	-18.7670401141029	171.070216390891	
6185000000	-23.4036861060104	157.894454563305	-34.7127909818672	-166.56007307583	-34.6517290127077	-165.883984150363	-19.3348029388523	-107.814363238632	
6270000000	-25.2737874313852	-163.92607451131	-35.5118083227884	-143.45255938336	-35.4643377558514	-145.336655398022	-20.2327254135366	-20.2344062532901	
6355000000	-31.2281936579427	-127.599811146574	-33.7651822354195	-107.111048106467	-33.9511704002631	-106.807406822126	-18.4442036150916	66.9370705964807	
6440000000	-44.8938713662088	-117.417161615764	-32.8410399563403	-92.1272910264842	-32.7818563265241	-90.3413320046234	-17.3506713283683	143.305569779741	
6525000000	-31.9888523058477	130.598145300596	-33.7691559484694	-66.813947616999	-33.4128943874391	-65.842091824443	-16.8610793180718	-151.49309736652	
6610000000	-25.202967729216	154.21472080241	-32.9224816587985	-39.0747813648146	-32.8592730971723	-40.2539945189719	-18.8102304954441	-78.4775653760294	
6695000000	-23.7639897102128	-162.266780933229	-32.1619831687214	-18.668098643403	-32.2169893703806	-20.4033094253244	-21.083426354286	10.1037841944995	
6780000000	-23.0881391915738	-91.2968429421018	-32.3984543606882	1.28699882252374	-32.4204178305773	-0.756491682366507	-18.8876826484447	98.0018326033774	
6865000000	-20.8097388795168	-12.9596882061572	-32.4772243583829	23.6239423367651	-32.8026156687926	23.8168130069216	-17.9543012477785	165.816343590512	
6950000000	-17.7985238735691	63.7676038287185	-32.5034627319228	46.8792886957336	-32.6878703462864	46.871718096321	-19.4703835668002	-135.948777913402	
7035000000	-15.9553652262068	126.723683718324	-32.8195026724603	64.0496751645326	-32.7975513822168	66.9793806601658	-23.3931068007446	-62.6036048196227	
7120000000	-15.7076563976147	-168.050645223165	-34.2014746592382	88.7177217395834	-33.9642039519497	87.6766774369191	-26.6602923877207	32.2145243923906	
7205000000	-15.9980420088416	-87.6008131436981	-34.8290218442507	115.075132987364	-34.8965289337631	116.28653977779	-25.6925237841217	107.51527055378	
7290000000	-14.8143735107394	-2.36238418017264	-34.2850958579494	138.605987586552	-34.0241558169193	139.025420605568	-28.0179816397097	157.438221359101	
7375000000	-12.7535251471433	72.768739925781	-35.9083030612536	161.790286317309	-35.7732193322838	159.601224453333	-36.3795404476562	147.39954462527	
7460000000	-11.8246944652699	141.13585255801	-35.9364470081519	-166.689013985964	-36.2388381817248	-166.298790784492	-34.4029287628456	117.691233027977	
7545000000	-12.2322406227278	-145.786354192758	-36.1209004700925	-150.93163735286	-36.3561297328429	-150.75630540139	-37.1282857653684	154.51743963898	
7630000000	-12.1207741926952	-63.0033853331761	-37.9541559406273	-128.503639425695	-37.8769933559125	-126.991243230758	-30.7640700842549	0.296555675952833	
7715000000	-11.1673469878102	16.2023012520245	-39.857311995335	-101.210979507787	-39.6920976150782	-101.521332207435	-22.8603344471312	52.9784515797795	
7800000000	-10.5159914649182	91.0902333409392	-40.2114871106302	-66.1011198127971	-40.5119820388505	-66.1590508879513	-19.5850312001367	106.421869945107	
7885000000	-10.6924838519559	162.96613417374	-42.1158477021958	-47.3161960537944	-42.1137352839448	-44.8490469665391	-19.5677180182178	165.157788128959	
7970000000	-10.9835220809923	-117.887954371507	-44.6137628087196	1.81242175870791	-44.6791151176368	4.07024159411326	-20.5452952480015	-116.728851431084	
8055000000	-10.9202649300923	-35.0434895458312	-43.8891278404464	44.5200133903904	-43.61096193249	43.0715067107628	-19.9101527986737	-32.6887840713367	
8140000000	-10.4932519213428	42.3468596731382	-42.2470862099299	77.1205647171116	-42.1662602386788	75.995294347173	-18.3441357432162	45.0205301032185	
8225000000	-10.4663444373317	117.992865868268	-42.6824226356176	107.853966089998	-42.6648085053591	106.117033516878	-17.6988273215225	118.140813476062	
8310000000	-10.8609094127265	-161.120004720319	-41.4910367149768	145.429077664923	-41.4544700347051	144.432053916684	-18.7642648877009	-156.714349786517	
8395000000	-10.5513626949562	-77.0297820882861	-40.0326945026537	171.362815737067	-40.2263459433183	171.124193400451	-17.3826657305774	-66.265523093499	
8480000000	-10.1211932714078	2.30006916081787	-40.4046233746081	-164.155037337463	-40.297206304638	-165.255743137452	-15.2887917092895	10.0280515830058	
8565000000	-9.87496933950265	79.3918561202094	-40.6648894692919	-130.586464547244	-40.8382843931075	-131.752190574203	-14.6420613647631	78.7514048564035	
8650000000	-9.85121838894711	155.696557283461	-38.7319400609424	-102.957028426751	-38.9277550586067	-100.469783124049	-15.1088257551459	150.47769867821	
8735000000	-9.79521891446519	-123.648392018679	-39.0254980551964	-82.3029592360782	-38.7198704125802	-80.5149997456779	-15.6870828709396	-125.694178152761	
8820000000	-9.73441270904185	-45.7028251524916	-38.5640702190504	-45.1378288380752	-38.5895356835131	-46.3009589201043	-15.1259002343115	-45.9928381665461	
8905000000	-9.88209498917338	33.1344876032528	-36.6206691532039	-16.9581110361235	-36.7606797776604	-17.1384193851318	-15.1574404250838	29.3273619883946	
8990000000	-10.3029723451455	113.43568562035	-36.121458657498	4.17407933535096	-36.2563054983508	4.33875557428948	-15.8571836542363	112.897378583168	
9075000000	-10.3078626058736	-164.190981698542	-36.7518718521178	28.2859886389894	-36.7878440128221	29.6936029376644	-14.9262123627331	-159.175107281592	
9160000000	-9.86365672261351	-84.0958746767635	-35.7327757421489	57.1383874581983	-35.8020382038818	58.4464244201379	-13.6415678351731	-85.2037182168292	
9245000000	-9.84811381798547	-5.74742320155321	-34.8339948131006	77.2530310833663	-34.9136699864477	77.875364649386	-13.8067002205523	-14.5009921851501	
9330000000	-10.1298576535867	73.7202671264188	-35.2454094932671	102.016195281052	-35.219827486037	103.147944870651	-15.2496307549437	62.881087159471	
9415000000	-9.99138734822377	154.307210790135	-35.0141341770355	131.526683296564	-35.0021926616566	132.545835159769	-15.7713652269378	153.476570401424	
9500000000	-9.95546488995595	-129.188141617878	-34.376359132708	158.007113043514	-34.3811173312482	158.38461555348	-14.609382127152	-128.793758817393	
9585000000	-10.4634975585671	-54.4556825715972	-34.2261494900948	177.050901773132	-34.1013526565962	178.008459737842	-14.5805890299635	-60.2517205405914	
9670000000	-12.0860815248045	30.3760681884672	-34.2519195937552	-154.629708772911	-34.1728876185026	-153.756477674623	-16.6163768723024	13.4002874881336	
9755000000	-11.5499763293819	121.882958568661	-33.3109618733313	-125.09681708999	-33.2268875399892	-124.875939427765	-18.2688807112771	111.991826322674	
9840000000	-10.369922678724	-160.457653225921	-32.7505463757263	-101.834718171944	-32.572021582279	-102.463511175296	-16.0343184744697	-164.996199006503	
9925000000	-10.5481205444277	-88.5430986798199	-32.6610553542569	-80.5380375893654	-32.5823036061703	-81.4109349798253	-16.9293365761528	-100.381189370284	
10010000000	-12.0459502199711	-7.47337822938057	-32.3642626747403	-53.2235594810267	-32.2843422964668	-54.3538196819987	-20.8042956632638	-15.4220805302158	
10095000000	-12.1644629874642	84.4427062563114	-31.7937941069685	-30.8351698166744	-31.7821386173082	-31.5032804925166	-18.7607066167123	98.8610488916299	
10180000000	-10.9454583601299	162.270643768265	-31.9082828634958	-10.9637443172323	-31.8899606021221	-12.0962542709448	-15.3115329022981	165.652021861544	
10265000000	-11.4068770507259	-125.696861347901	-32.0564390841205	13.7921000346937	-32.2356036332031	13.0992414925641	-15.699068833184	-140.907026185181	
10350000000	-12.8949396903619	-43.4284720573271	-31.5048334942448	40.3415399655436	-31.5532412906664	40.2758679703827	-20.7140702734166	-76.8260179836403	
10435000000	-12.0936231398101	51.8762804837611	-31.2637964141972	63.2991502579192	-31.1599592984009	62.708886706388	-24.2204599806143	59.6735799433147	
10520000000	-10.5688141463399	125.906274018067	-31.8747160907453	86.6482620439348	-31.837870588748	86.2331561459122	-17.9256920666069	134.832989416315	
10605000000	-11.4518408113994	-169.024016535195	-31.7827408423504	111.453236521931	-31.7776505947836	110.64412104174	-17.3881837125959	-171.231387526072	
10690000000	-14.977423637829	-87.6318137824288	-31.1965148316868	132.946608107091	-31.2352431959117	133.290360701874	-21.4683757964777	-110.065882688313	
10775000000	-14.757863076504	19.0778301163246	-31.8436956888955	157.826938856482	-31.803884378406	155.607295242312	-26.098454069353	7.08405230567532	
10860000000	-12.185233036025	99.1648888761154	-32.0846409122423	-175.355242906478	-32.1513050931071	-176.444152867093	-20.6999639206581	90.184438163071	
10945000000	-11.8586223866535	167.070185515731	-32.0349720971345	-153.686028000661	-32.0405332858677	-153.077743119629	-21.0790170310914	135.049663199467	
11030000000	-13.841679786989	-113.027139891162	-32.1355977019541	-129.346485268168	-32.0722771028537	-128.791534644079	-27.9831190029231	163.985509051274	
11115000000	-13.7267506747089	-18.8856763243924	-32.331734415397	-101.894095054886	-32.4153078368058	-101.810963907738	-27.2091748057129	67.8053992328004	
11200000000	-12.005360175788	59.9549716310803	-32.4580822177502	-74.4791907752427	-32.3801721116902	-74.390348127829	-20.1486836151221	96.8745191792063	
11285000000	-12.0561062550246	126.633355213107	-32.544746703353	-51.6022972060656	-32.3539491661133	-51.4494802424475	-19.5314181250989	130.163966797692	
11370000000	-14.6981772260841	-157.533970312921	-32.3309286259395	-25.3601197010937	-32.2300775254134	-26.0928908094221	-23.978722366289	162.097926609705	
11455000000	-15.1055718206757	-52.6919734176882	-32.460044005822	1.42453526581192	-32.5136190215034	1.25700259408091	-39.6706505173562	99.5861930670451	
11540000000	-12.5619561232355	28.5173539257238	-32.1782946111625	27.299195008668	-32.1809746743464	28.0042316223852	-26.4494133346078	69.470418746415	
11625000000	-11.881455161549	94.4204046678288	-32.5439668627676	51.7892027695618	-32.4205334227297	49.9794789015054	-23.5262843278534	96.8083453269736	
11710000000	-13.6898257225033	162.175410253052	-32.3869946319108	77.7874166617334	-32.4636148300599	76.635315002062	-28.596209605649	123.140400793324	
11795000000	-16.0397705084487	-106.486391661765	-31.9583233819737	103.562284464375	-32.0876493343804	104.018115085519	-39.166985889932	61.9645378749364	
