!Keysight Technologies N9917A: A.11.27
!Date: Saturday, 26 October 2019 06:40:47
!Timezone: (UTC-08:00) Pacific Time (US & Canada)
!Model: N9917A
!Serial: MY56072049
!GPS Latitude: 
!GPS Longitude: 
!GPS TimeStamp: 0001-01-01 00:00:00Z
!GPS Seconds Since Last Read: 0
!CHECKSUM:0077097701
!Correction: S11(Rdy)S21(Rdy)S12(Rdy)S22(Rdy)
!S2P File: Measurements:S11,S21,S12,S22:
# Hz S DB R 50
1000000000	-2.96541645751886	-18.3631250237423	-30.877916269981	108.093603964814	-30.9919511086821	108.281073735514	-2.34821986563065	-7.43463974897472	
1085000000	-3.73155974701804	42.7565164410111	-30.39511672741	118.044126279196	-30.3257655218352	119.075641361194	-2.90828114236166	60.0765609994664	
1170000000	-4.79131439445574	106.423144728388	-29.5870884681143	120.160960577043	-29.4968192664342	119.937418292634	-3.65690777114313	132.235832550032	
1255000000	-6.14479431553602	169.572334642063	-29.0082384851258	141.415242958082	-29.0047392874401	142.240439416771	-4.10416690614155	-155.870445673046	
1340000000	-7.71717156515675	-125.969124151726	-29.2729048774254	157.735399873986	-29.2378317660176	157.465308350587	-5.05915396107374	-86.047155283857	
1425000000	-9.29287007143832	-71.4854952416373	-27.7958539665899	162.189740032544	-27.9172262402004	162.334792586736	-6.4854723421628	-18.2148235463717	
1510000000	-12.4659276712199	-19.3247944523264	-27.3919250601685	156.990233700828	-27.2993647307096	157.063274344106	-8.87942797011709	57.6895317667646	
1595000000	-18.2040912581169	33.1424962375827	-27.2227133803656	164.072817036681	-27.1710241060489	164.06103374442	-10.4810091099965	144.741219638044	
1680000000	-25.1028264903617	108.044769913605	-26.9673198704165	152.160497369271	-26.9473963067098	152.119881505459	-10.4421599966254	-135.160029930604	
1765000000	-26.6548378273307	-176.1851051111	-28.9458836834346	142.26407732674	-28.7708371923047	143.012874810518	-11.7769559305979	-61.1795833268531	
1850000000	-24.3833855390354	-151.398846681173	-31.6977838535224	155.338707112202	-31.7752843604945	154.81616025259	-13.1497273672103	24.1430208653628	
1935000000	-22.9548440417477	-138.758312377123	-31.4285043075694	160.379000156056	-31.1911944121558	161.169689427392	-13.4210271944492	112.363765205721	
2020000000	-23.4525075328953	-106.869535289264	-31.8475943705017	154.803204831824	-31.721936678169	154.269473079099	-12.7688442733705	-164.690468121512	
2105000000	-30.7481381084358	-84.3711486895692	-32.806366223502	175.830767301095	-32.8583466011372	174.723625341904	-13.0459639810826	-91.2321567681259	
2190000000	-28.9615375962143	171.382762293634	-32.6028216092255	-175.975139952498	-32.6876169640441	-175.626382377861	-13.7255300268979	-6.06430254450045	
2275000000	-22.4547403669306	-158.432783750545	-33.1143066415649	-163.955179654054	-33.120756723022	-162.920503840745	-12.7379584986503	79.9155057356242	
2360000000	-21.815530486595	-107.267885780929	-34.1434704369652	-140.130979137267	-33.9313159562906	-138.881442790292	-11.3805309573616	154.19518158153	
2445000000	-23.7686715597368	-37.3805835958948	-33.1794619390463	-122.226222628775	-33.0526213416097	-122.106249523289	-11.3595691156616	-137.734977161341	
2530000000	-22.0664928368433	62.8385271720187	-33.3684768126547	-102.023775641466	-33.1996011023532	-102.49934735636	-12.2916615310487	-65.0153501151255	
2615000000	-19.4070986662758	132.991018622372	-32.5427888632371	-81.0383108019876	-32.5916874179295	-81.7090992779402	-13.2344666265424	14.116253804672	
2700000000	-19.7062017664408	-166.604262026925	-33.2279753874362	-59.6883372851721	-33.1611853751436	-62.193875300677	-12.9561222968663	88.921910257694	
2785000000	-23.0306921330091	-67.4026178959034	-32.6722952702209	-37.4505569035336	-32.7837838764452	-37.674512148818	-13.6394960957454	154.385250565852	
2870000000	-19.2695428323892	31.8112350971854	-32.8390620133192	-16.3100243503726	-32.7595808800195	-14.7871815468752	-16.898971480974	-133.531380881788	
2955000000	-16.0454298701662	99.2548094751623	-32.7471710406002	12.1459396617802	-32.8736440539221	10.5242265335328	-20.2555706775663	-45.6610475217658	
3040000000	-15.3095524240585	167.312336766349	-32.9623566217378	36.5200127338439	-33.1919553578366	34.8652527562942	-20.3683169154252	57.4111556997089	
3125000000	-16.1155343376191	-122.269073903511	-31.4582311544039	63.6925248542044	-31.5138729748369	64.2974416538426	-19.4345442796511	142.006697664894	
3210000000	-15.4948676965365	-39.2971363579766	-31.0870777553848	83.0106500092919	-31.076799676688	83.945231754515	-19.554117796132	-134.494555419786	
3295000000	-15.3325933076037	36.8843791396105	-30.1265713982301	108.974270485164	-30.0479503294062	109.642922531607	-18.6136674132424	-45.559104213457	
3380000000	-15.8760366565802	106.737342587731	-30.4181184228849	131.32138627441	-30.4205833936294	128.679002093326	-16.9762931393591	25.2976771637246	
3465000000	-18.3305840045914	-169.768425189011	-29.4018264087155	155.069698359741	-29.6414419362712	154.519792983141	-17.1047502589656	89.0738571378075	
3550000000	-18.8275221467036	-63.897396473628	-28.6056734657034	175.071565580327	-28.9323282275842	175.212985903956	-18.6635944277408	149.392037211609	
3635000000	-16.2317566699554	14.5638176943253	-29.0944528297376	-164.524085311437	-29.0891194715532	-164.216575429475	-22.0036070308583	-141.635173187015	
3720000000	-15.6688581613274	95.5470316915448	-28.9666515580967	-143.681470819937	-28.7304573103449	-143.086446580353	-24.2155984204893	-70.5436639771925	
3805000000	-14.3249361547639	179.644209724372	-29.0506247393478	-120.005392351315	-28.8060363913078	-119.607562154724	-27.718436694825	-15.5561505253882	
3890000000	-13.770013597137	-102.634014259131	-28.7563563354781	-91.5685477231018	-28.8703517017179	-92.6634048119114	-30.1789736943415	5.85508870277906	
3975000000	-11.8809883236484	-28.3876604477681	-28.575564855931	-66.3628207097988	-28.6327727973932	-65.5001622717401	-27.3761172823116	0.483529495131931	
4060000000	-12.0866768650969	39.3808240375256	-28.1407504342583	-41.3324719135444	-28.2125745775356	-41.6540070238502	-28.0352616503875	53.8672776268553	
4145000000	-12.8367639965069	117.856519911352	-27.3125849768065	-20.9716484621391	-27.1367632449564	-20.4356894505701	-26.766225931611	136.73104563248	
4230000000	-12.0991183947985	-163.490728783579	-26.9330859349266	0.964015213391798	-26.9775564190977	1.26859662511724	-23.5929559271243	-127.974523072948	
4315000000	-12.5899117286782	-91.7797635370367	-26.2823669711517	20.9747366817201	-26.192610154919	20.5443188197064	-21.1737398218001	-66.211409711641	
4400000000	-12.9197169839072	-16.0901385600943	-26.3900110000268	40.4001508826126	-26.4615889614857	41.5086951689161	-21.6900251183499	4.43793294340303	
4485000000	-13.9774170348924	59.452051942483	-26.2987457298207	61.0887936997685	-26.1679194051049	61.286326623562	-22.2207671478336	88.5316722200035	
4570000000	-14.8307943108204	144.776016487426	-26.5142802623246	80.5637538136999	-26.1685510688068	80.2711268857583	-19.5623497987699	174.907849339605	
4655000000	-13.5907011167138	-135.338229343644	-26.833091148155	102.431284610022	-26.8149420375812	101.892464363091	-18.9388049899429	-117.027991476778	
4740000000	-14.0212951664146	-66.3696687222186	-27.370215389463	124.961129407835	-27.2260734874264	122.042710566339	-19.7050540350135	-47.5208545539096	
4825000000	-15.9197548183441	14.9077412572872	-27.2452934148352	143.942103319995	-27.3603417134594	144.149910713359	-22.0554587240548	34.4311488031938	
4910000000	-15.7424007586782	97.617943536882	-27.7982881509172	168.914540980335	-27.850286334574	168.166224962822	-21.2699052613334	132.663675159106	
4995000000	-15.6237169007472	179.780434931859	-27.9547312309982	-169.051500498523	-27.9551678665698	-168.98372884625	-20.3663736009086	-144.742641652223	
5080000000	-15.5891337306032	-105.995785507318	-28.9383387729029	-147.899945392307	-28.8521646846711	-150.321979296317	-20.7406793047071	-72.3248164278524	
5165000000	-16.467436184871	-33.6822158391267	-29.1033136146082	-127.568204861919	-29.0259363839711	-125.880397168474	-21.4473937605097	30.827749555197	
5250000000	-17.0658281509313	59.1831045933088	-29.8915162796445	-102.767914104044	-30.0176893531342	-102.020865361431	-18.9905079525994	112.787437094794	
5335000000	-16.0611643242095	136.706301324727	-30.6817589424781	-79.1300254122803	-30.3630644651376	-79.1055270382872	-17.1019538603706	-169.514686432659	
5420000000	-15.5822053924627	-151.086203486547	-31.6478227878458	-58.0041381949499	-31.2012757534624	-56.5840591015834	-16.6672215819192	-97.4656028514004	
5505000000	-16.3901657180465	-76.9719523017889	-32.3605387543129	-28.1990311538761	-32.5438967024942	-28.2282298786867	-16.9839895047388	-18.2473578941376	
5590000000	-17.8013177689463	-2.01034679930577	-34.1116875620269	-5.13682634795574	-33.3959134462224	-6.0879795029899	-16.3958870249518	58.0995182588315	
5675000000	-17.4934007837843	81.0292621796294	-34.7093700289849	26.6261701276985	-34.7034043905614	26.3341166398325	-15.8937285868306	137.580462814311	
5760000000	-16.8796023293555	155.64283359031	-36.2670884366067	55.1604207115544	-35.1176438500891	54.013879020028	-16.0553138769343	-151.334053710336	
5845000000	-17.4653701011759	-140.849357604986	-35.8474948870246	94.6897019911514	-36.2212536741444	91.4827682704595	-16.9107644749887	-75.5431324540397	
5930000000	-20.2508028504157	-72.8266311449496	-37.1143978880938	127.202728153304	-36.7912218103007	120.450767077548	-18.4432563578706	1.39953079081955	
6015000000	-22.5528462499052	5.095496666172	-35.336897039234	157.867607249113	-35.5396530651255	163.324289674561	-19.0019696798731	91.0310797720726	
6100000000	-24.1018990405104	88.3533162876047	-35.1266411188179	-166.958337348045	-35.5684943668367	-172.394892534935	-18.3508036154821	174.571123946404	
6185000000	-23.5440681103908	158.125850011511	-34.3491570508673	-147.149203477353	-33.8703646290379	-147.947543886961	-18.7380375542366	-109.279372390002	
6270000000	-25.9100563146607	-156.602316692186	-33.4222913250935	-121.43436627754	-33.482663550613	-121.826063506285	-20.2178856479353	-26.0975435610899	
6355000000	-32.4151529455209	-96.7140706135271	-32.2822447200189	-91.3550082162489	-32.9006845766164	-91.2049616336867	-18.9237930574893	65.649222231914	
6440000000	-40.7592779888437	23.9988145763497	-32.5203772283373	-69.7047712708478	-32.3933051096117	-71.3569194939721	-17.8839904834307	144.258032431999	
6525000000	-28.8084952125061	119.744488985422	-32.2780991190343	-44.7941026946167	-32.3069056461075	-46.0901664819144	-16.9471105279341	-148.254258623743	
6610000000	-23.3292597324945	150.353499149431	-31.908427846369	-25.6783371927666	-31.5533823174413	-24.4938631286265	-18.6374072595992	-75.582112664969	
6695000000	-22.4601975520561	-165.235954474803	-31.6408436500941	-0.370260372941622	-31.7313232092236	-1.9993574889989	-20.1528213576771	10.9437025057385	
6780000000	-23.7956796302357	-94.1389500993197	-31.7335861351494	20.7217610913879	-31.5236006702843	19.0360712888226	-18.4500240194401	93.6097304062043	
6865000000	-20.9446274136059	-7.48342046886941	-31.2891812536411	43.7881428177495	-31.6422416641952	44.7876973883306	-18.1759094621543	161.480360293234	
6950000000	-18.0077063377584	67.2130939929874	-32.3713376225222	69.5678318951385	-32.6088433948426	62.9804177452804	-20.1253655683113	-140.576937089889	
7035000000	-15.9067316234649	132.501298549327	-31.9697418285528	85.3758310492628	-31.9910204351559	88.3151690322541	-24.8342504274325	-56.126740053679	
7120000000	-14.9970562750873	-164.374343577025	-32.9329917706172	111.892150580613	-33.3188423467428	107.548668311173	-26.3937734245294	43.0451745735879	
7205000000	-15.8624972166623	-87.5303106619915	-33.020941151998	133.781217551679	-33.4618401266089	134.386187898125	-24.4460169198822	111.333040677656	
7290000000	-14.4491460812497	-1.56189039125323	-33.9921435027768	156.283597942793	-33.8939944213499	156.344432478653	-26.8475749797715	160.327903948037	
7375000000	-12.734554854768	70.8699654701657	-34.4971229300096	-177.806954612749	-34.7304204414442	-174.619331057437	-33.5710722459369	169.311378887389	
7460000000	-12.1369211120842	142.185770268315	-35.3510887592086	-154.327768754194	-35.4649809988932	-153.081743503292	-35.3823490669611	140.275942379263	
7545000000	-12.1818629699021	-144.029585473759	-35.9916316527788	-130.465451635248	-35.8771057121552	-129.248433554903	-35.7431608955433	-166.633580345988	
7630000000	-12.1911883995244	-62.3798162322058	-37.2030272429845	-105.20551688928	-37.15608915423	-104.827718013133	-31.1094190853731	-14.7112377400035	
7715000000	-11.0441889247352	18.2432632225826	-38.5877951717936	-74.2096438484682	-38.7767011589165	-78.78059430587	-23.3390254487061	48.3104178100413	
7800000000	-10.2620872019969	91.1125194604792	-40.3107360835358	-47.7432358610506	-40.0839425362297	-50.5825315150966	-19.9529871806958	106.4879190384	
7885000000	-10.6486224566501	162.960777429503	-41.1514670585713	-17.016659894821	-41.472578815766	-12.6148646650121	-19.7717507704056	165.854031746817	
7970000000	-10.8790495502436	-117.979287556342	-41.7031124292401	29.222016416013	-42.7631329000134	27.7971152466489	-20.4722831523316	-115.025482465904	
8055000000	-10.9421604478894	-35.9578122254062	-41.7780391165585	60.071661337176	-41.9627545407876	61.6059833242461	-20.0106918682209	-32.1772646909561	
8140000000	-10.6506884994892	42.5333365017335	-42.085238960976	95.4848160116694	-41.8531466087415	94.175890932204	-18.2697152519434	46.0138991722442	
8225000000	-10.4741075055567	118.729558323573	-41.0561800727393	125.937012957049	-41.4460625021447	131.13549497704	-17.4279746445776	119.048925108729	
8310000000	-10.912401717462	-160.563401381958	-40.4483508117359	162.555252090177	-41.2523793437698	162.757500968361	-18.6323578878499	-158.12952582485	
8395000000	-10.5180453539347	-75.9334641020374	-40.726180973948	-168.434824764632	-39.7882244099728	-167.409056605411	-17.4709186891521	-68.3034891946669	
8480000000	-9.96476515634447	2.67265616371735	-39.1538139319259	-137.254194433179	-39.2394660471393	-132.953206996885	-15.5355605017615	10.1673346329279	
8565000000	-9.76268706140718	78.6606567269829	-38.4405781927604	-104.51649937561	-38.9285900493759	-106.628308064162	-14.836616806461	79.3498498399414	
8650000000	-9.85430763107462	155.108410787264	-38.2712578033767	-79.529309839417	-37.8260715246656	-81.7932974436853	-15.1707362185808	152.113132413073	
8735000000	-9.87865170357741	-124.381928519745	-37.1685640144395	-54.0639297463905	-37.0072362537296	-52.3615661019814	-15.5327300900247	-123.630172143353	
8820000000	-9.92523066763504	-45.4641054674171	-36.4023428424793	-26.6566567341067	-36.6041459113372	-24.925083006262	-14.8005175824149	-45.36727123347	
8905000000	-9.91899763115662	34.0482265998208	-36.307490544095	0.46446387294847	-36.4675056416562	-1.43013671447481	-14.8351443228222	28.4785981190955	
8990000000	-10.2555897263963	114.203417448338	-35.7989645072803	23.4922177309655	-35.5400446851668	25.5318766657668	-15.9031872542579	109.089380291861	
9075000000	-10.137619557531	-163.851661326976	-35.3733411675245	50.4639908605109	-35.3426402266699	53.4488585112624	-15.4127891077137	-159.635957955814	
9160000000	-9.79991762532135	-84.9908671012852	-35.0923123522281	80.172879159217	-35.3454030718805	77.2597100774567	-14.0681611884785	-83.4652925928081	
9245000000	-9.85028677453006	-6.84539639174153	-34.7186505883338	102.446934134238	-34.3863368683575	103.250960742274	-13.8666500461676	-10.8675371522663	
9330000000	-10.3190914880951	73.0059160759189	-34.2108135582952	130.855476091745	-34.518672979249	131.619784305216	-14.7942112771334	65.9929180188147	
9415000000	-10.1366114561945	155.049570254745	-34.1285970174494	156.703356004227	-34.1555675156084	156.445516311065	-15.226137202912	152.112157976874	
9500000000	-9.99794372131771	-128.163879440416	-33.5053287879293	-178.748432130908	-33.4713605340806	-178.494701399172	-14.414197468476	-132.229495974826	
9585000000	-10.3967693186471	-52.9093872834638	-33.0904519601872	-153.909402093177	-33.1500824056672	-153.220306107043	-14.9395571203204	-63.6877038289057	
9670000000	-11.7187531039481	30.1912008511523	-32.3806612472963	-126.997844331681	-32.5678921389759	-127.426661870214	-17.3460674950146	12.5854941790347	
9755000000	-11.4667928238216	120.003851516906	-32.1607640197877	-103.057161743442	-31.8632408156678	-103.222491310002	-18.7576831845883	117.216521012276	
9840000000	-10.4986439742908	-161.511473682837	-31.5922341023873	-77.5920899538282	-31.8605735941781	-76.4156320124382	-15.7702644311256	-160.597893965557	
9925000000	-10.7803417243122	-89.3120306670783	-31.3603631913673	-55.304863615582	-31.261370955145	-55.4353309842918	-16.0956882647768	-97.7475036708031	
10010000000	-12.4129727751565	-5.36954458528818	-31.1492212914171	-30.141933175153	-31.0222189899656	-30.7443718539994	-19.6504289993121	-20.7010484560816	
10095000000	-11.9426922576177	87.1074808609581	-30.7174514699739	-6.79606160408563	-30.6642200771895	-5.24583761069164	-19.758642824143	91.3587560576188	
10180000000	-10.55179444517	162.822827587735	-30.8368898249641	17.3355435170914	-30.8744171727127	15.9350602666205	-16.1900577256321	166.402938545955	
10265000000	-11.0527179593999	-126.955481554688	-30.7447202144612	38.3713988445805	-30.6369994195256	38.6809566616415	-16.433067899197	-137.083341566225	
10350000000	-12.7486007524417	-46.5278033666967	-30.3452776159234	63.9400027540435	-30.4402629282452	63.2976042453706	-21.1030592509921	-67.9531360357766	
10435000000	-12.4624135032915	50.0457967719846	-30.6021146274902	88.1914464712106	-30.4370160819511	87.551782194116	-22.1785370156756	60.670475440834	
10520000000	-10.8864236663243	127.371294904218	-30.5874927316063	114.205003877628	-30.7484872156442	113.57024144602	-17.2089426277971	128.810216247296	
10605000000	-11.4104011165106	-166.700494265338	-30.6847246385904	135.737220439906	-30.4917153024942	135.47228819174	-17.202455225965	-177.950624722364	
10690000000	-14.7801865901896	-84.7426664845174	-30.3845600145841	163.231545215869	-30.6474385115039	161.751369631008	-22.6644965993703	-122.409681984214	
10775000000	-14.006800153842	17.3146696449871	-30.4717010428802	-173.479814133767	-30.4191746924209	-172.453896303176	-28.5414109189465	23.7009525486405	
10860000000	-12.0404536225767	94.9325369430534	-30.7631274121559	-147.811285532963	-30.8594604655835	-148.27039105976	-20.5771352301587	99.923110673291	
10945000000	-12.1289221574727	164.358826743172	-30.8561725830084	-125.588148686684	-30.6514315823967	-124.583857521071	-20.2156609687835	144.620433507458	
11030000000	-14.3915656798929	-113.817975177443	-30.9209992775574	-99.1841651696737	-30.9499377160271	-99.1029497003071	-25.9708933617024	-178.19056773931	
11115000000	-14.0333756451882	-16.7025361907581	-30.8752321750499	-74.7243301381895	-30.617914077496	-73.1119847851059	-31.3446169710401	70.527780394732	
11200000000	-11.867530411466	62.1678249294838	-31.0825604752008	-45.2718635842995	-31.2837726843536	-47.5981346320737	-21.6707016510474	97.6997710271414	
11285000000	-11.5882560103115	126.895508659304	-31.2079468900445	-23.9649717239517	-30.8964308278444	-23.6622056126116	-20.9377261544629	134.283648034374	
11370000000	-14.1277185291863	-160.821296463895	-30.8454992379689	4.24795315170754	-31.1735940035493	3.15490524647443	-26.0114629771053	169.824938972585	
11455000000	-15.2722006785029	-57.9084757895953	-30.9726568666289	28.8760094900746	-30.7117213568259	29.4698813131074	-36.4227752452434	21.6357699058982	
11540000000	-13.0679466333624	25.5215795761752	-31.1386568708544	57.1013766418922	-31.2001658641338	56.3507320086266	-24.5468302362543	54.8900226113871	
11625000000	-12.468866442218	94.6651397807422	-31.0406024770368	80.9834074826889	-30.9649522159994	80.8698680382075	-22.4017209981912	83.9310028945578	
11710000000	-14.0001220459882	165.153981052936	-30.8657919266696	108.060123021263	-30.9922111324147	107.190844210806	-26.7234772428809	103.054125803006	
