!Keysight Technologies N9917A: A.11.27
!Date: Saturday, 26 October 2019 06:41:15
!Timezone: (UTC-08:00) Pacific Time (US & Canada)
!Model: N9917A
!Serial: MY56072049
!GPS Latitude: 
!GPS Longitude: 
!GPS TimeStamp: 0001-01-01 00:00:00Z
!GPS Seconds Since Last Read: 0
!CHECKSUM:1605773443
!Correction: S11(Rdy)S21(Rdy)S12(Rdy)S22(Rdy)
!S2P File: Measurements:S11,S21,S12,S22:
# Hz S DB R 50
1000000000	-3.16921758640547	-20.0647099769211	-41.1047244489042	111.417831485659	-41.143868376111	112.281574443433	-2.12548574737218	-7.61703478538398	
1085000000	-3.90688594322942	42.8956604374708	-38.2328679367635	105.573350221762	-38.2370124246693	106.042703681053	-2.75105353433781	59.0309741213962	
1170000000	-4.89749404425707	106.880539096022	-40.5850882570737	95.786577602111	-40.6441453616766	95.8682703847216	-3.84468827439654	130.154102475536	
1255000000	-5.86113201336787	172.398966569229	-35.926618734834	162.711926805461	-35.9275681458386	162.542257945345	-4.14831688058572	-155.371445787813	
1340000000	-6.97019118507327	-128.372728012525	-32.2206574660907	164.599536056743	-32.202937752932	164.16541358601	-5.07188115213855	-86.0885533212729	
1425000000	-8.95790552197623	-75.3142826571991	-29.8352290359719	165.472937015387	-29.9014349324548	165.655792816608	-6.61164393721389	-17.6444214792769	
1510000000	-12.1371097467692	-22.4944930328711	-28.3199264619057	155.720569776983	-28.2798794420079	155.888317691656	-8.82565837453966	58.6590374995699	
1595000000	-17.1770127551731	30.2673689975489	-28.5144089533351	162.394773773022	-28.5161809000048	162.172314827359	-10.2580865633427	144.267053060344	
1680000000	-22.3492367770488	101.692060597492	-27.2733537134557	157.444851517145	-27.2692430667562	157.285150842664	-10.6386740811864	-133.73029163301	
1765000000	-23.7042732197029	167.260994220638	-28.4551115694941	156.783589501462	-28.4650049601614	157.131112212392	-11.1870645149904	-61.5057506178275	
1850000000	-22.7610518278476	-153.707732524153	-30.4031816188134	174.044182171361	-30.3143310166649	174.136506945815	-12.8357607373541	21.8092235702691	
1935000000	-22.6860663922483	-128.75626319682	-29.6188938430962	-178.679679578818	-29.6649501046988	-179.086199579443	-13.6671386894284	108.864038702925	
2020000000	-25.0205220396922	-100.29834966241	-31.1081472391415	178.268315949345	-31.1221290098572	178.411303078085	-13.5812728889428	-163.745029243776	
2105000000	-40.2410810679092	-128.297533453408	-32.2570542325033	-159.909054642905	-32.27879672307	-160.514818024227	-13.0817355792625	-87.2470947284907	
2190000000	-24.1883576136971	166.607580499146	-33.234162733891	-154.949698147648	-33.2504112883191	-155.237566454083	-13.3651275545754	-4.79974544409322	
2275000000	-20.0971642587192	-152.814792026453	-34.1429653471287	-145.080324646861	-34.1588843387853	-145.266421536444	-12.5323260514248	80.3286295197224	
2360000000	-19.7403743311875	-103.482355570666	-37.0261912757975	-116.959158001304	-36.9693566099542	-116.886462632546	-11.0981456986302	154.290932417011	
2445000000	-22.0206031515091	-30.9817236196838	-36.8368449123557	-100.933671882946	-36.8394631274273	-101.052246762524	-10.9883163427309	-138.534434232621	
2530000000	-20.8736928523742	61.2060113296605	-36.9489531167659	-72.2789580834565	-36.9762419136033	-71.9713414928156	-12.0302471024437	-67.8456233626751	
2615000000	-18.5381293851171	134.15574574177	-36.9547373026928	-67.2792651265184	-37.001280121286	-66.4778487948431	-13.2252165086656	9.06124148575688	
2700000000	-19.283395421022	-160.419343981483	-38.8583861347188	-59.6497017224683	-38.8472133932155	-60.966336527043	-13.6574668876372	87.5273475775963	
2785000000	-21.1257440828252	-67.9884402546291	-38.9863437248981	-39.7982293005835	-38.9966244049218	-40.44012498403	-14.296870073872	155.287066774752	
2870000000	-18.4107682016263	26.4083603162206	-38.4979227250793	-32.9797290485597	-38.3265915648166	-33.1954518692954	-17.8674163698485	-125.460671535358	
2955000000	-15.6266182533358	95.4276855302941	-42.362479434454	-13.3878278025033	-42.0556044750141	-15.9342760109141	-18.4340227472322	-35.368260707926	
3040000000	-15.5406300645015	162.847240738405	-41.4597931279212	16.5147215469747	-41.336721823052	16.7579100614847	-18.6588658475944	56.0235948340287	
3125000000	-16.524909760883	-119.959755488046	-44.750523292349	37.5351420928304	-44.6371011479635	39.3382053668451	-18.0203663402004	129.087765744024	
3210000000	-15.9607555473763	-34.8978677924977	-43.2595035158418	69.7662014187921	-43.201019682708	69.4032722829513	-21.0141836341262	-149.222552957129	
3295000000	-14.6067478513002	40.0369217203907	-43.0617738921913	88.7790509371564	-43.0540627226631	87.1425640300602	-20.8471562469023	-49.7168455523903	
3380000000	-14.8097772429388	108.3625894093	-41.9816143411841	79.8274673370041	-41.9974055589561	79.4282255943636	-19.0364857161679	35.6878684671244	
3465000000	-17.4264823513401	-177.351780908404	-48.9432660195693	87.6489529734143	-48.6516320871049	89.4998546905537	-17.2662940168075	103.472429256326	
3550000000	-20.0841059268155	-76.1627640243827	-45.3145738029961	117.981846803055	-45.1893632422493	115.995953683049	-17.3181060517182	163.797036482105	
3635000000	-17.4975249570156	25.210249405499	-49.7007990803306	147.948733199151	-49.9883585078741	149.564672153372	-19.0997872877169	-132.066336104133	
3720000000	-15.2729546417704	103.461876668144	-55.7984087988444	170.751950602043	-55.7349144083379	179.456039507096	-19.5634314978708	-75.5950378364126	
3805000000	-13.6113715419757	-178.921284399063	-51.6224962726755	-168.875721664795	-50.64428803901	-167.911825873117	-21.8944888690687	-37.0990178349415	
3890000000	-12.6084080855024	-105.755069111305	-50.1666640550934	-106.980493821841	-50.5058745052584	-111.376823289962	-22.9664718987561	-12.3356710561584	
3975000000	-12.1777736288284	-35.9278970102809	-52.6960432714043	-108.156172413615	-52.1479932332689	-100.021419842692	-20.7822463761231	6.77397563129229	
4060000000	-12.9612426050753	38.015860333082	-57.7604657033744	-52.2944283416451	-56.8863985150585	-68.05959095954	-19.9700638860397	39.4197219904167	
4145000000	-13.5826129234598	122.220521825126	-47.1873981013734	-23.4673446653226	-47.2790130919615	-23.8642611679059	-23.8361805112043	88.1092383687868	
4230000000	-12.4995429288428	-156.468696841946	-49.4757290829293	-56.8080120460207	-48.8128675244399	-52.2009773160168	-28.1944222668763	-179.938711448392	
4315000000	-11.4778236550052	-86.6156963920172	-46.203817176444	34.5700066606129	-46.8862752338767	32.8049146797489	-30.4754120795477	-45.5604663602653	
4400000000	-11.8828965460971	-21.3183262326309	-46.3787378507121	40.451034861642	-46.3181124864994	42.8095805145944	-24.0978043898042	36.5414669513645	
4485000000	-14.2035887076537	50.5712916633206	-44.561261606885	47.4153938204278	-44.4927930776737	44.6654851209565	-19.7238295507844	121.949146055559	
4570000000	-15.980287032571	140.510853234636	-43.4877550314082	58.143290139223	-43.4006046774124	57.9811375583666	-15.7636393688766	179.859370421823	
4655000000	-15.2602429644187	-131.045529351584	-44.4444573904691	71.8420367898097	-44.4292130587498	70.9991416457287	-15.7041968661	-126.527758926575	
4740000000	-14.2649917172448	-57.1599619736579	-46.1306309466615	83.3520898733572	-45.9625768622209	82.0522223034404	-17.5899998034166	-71.8776669181928	
4825000000	-14.492182511287	18.114815409312	-43.1592248152895	109.579146224151	-42.9888032501174	109.017915312854	-23.9250399797157	-3.8123686753014	
4910000000	-15.1205482634676	93.4837030034537	-44.0486220231922	105.00850109298	-43.8750113853026	104.998210034201	-28.2683656871571	148.731526355605	
4995000000	-15.9380917372884	169.999425491666	-46.036128102639	140.410678582698	-45.8034521682231	139.196491151133	-21.1449377841341	-118.468198826792	
5080000000	-17.2239725164279	-111.296477951401	-44.01653474966	157.523115042444	-43.745704066646	157.122946542148	-19.1361764924902	-49.4987879083413	
5165000000	-17.9842008016558	-22.0493599761097	-43.8051042233207	174.356609956326	-44.0705384795444	174.026848175802	-17.9991165791638	29.4829667924239	
5250000000	-16.7066992076231	63.9318343217494	-45.4462785741786	-165.323834978718	-45.4927184240131	-166.04737882889	-16.9749924635323	98.1476559814441	
5335000000	-15.2100559086888	139.689370215911	-43.0559874042908	-146.655651979138	-43.1995545074874	-146.854303361743	-17.4425936970368	175.350305120909	
5420000000	-15.0154909085497	-153.811718856041	-42.4044109920403	-141.724860303121	-42.3621151086417	-140.027124125349	-18.5295904531613	-110.232123661786	
5505000000	-16.533028795827	-86.1992106823765	-43.4969565426182	-124.127436199446	-43.5547956811851	-123.85460731348	-19.4639024138922	-13.5871076496961	
5590000000	-19.2516218345655	-4.8159999564135	-42.2605566284263	-116.880684126512	-42.5985062614053	-114.676586489667	-17.3726131967759	68.3332526872913	
5675000000	-19.0437652778152	84.919690759853	-43.4641146872372	-93.316372916593	-43.6007476246369	-91.3502678096032	-15.5647076962504	147.660490168971	
5760000000	-17.4640210123931	161.762106910693	-42.1843161366142	-84.1477936321901	-42.1399570299206	-83.3048063688537	-14.6010704785302	-145.129007541377	
5845000000	-17.5141498711896	-134.083480108286	-44.5677621272208	-63.4122756459165	-44.6041441044701	-62.928511038272	-15.1120508711201	-76.5245583459222	
5930000000	-19.4976726594448	-73.3155101073782	-44.2148154978392	-56.3623512457572	-44.3188199118888	-56.7685361839176	-16.6216739707897	-9.99978229165748	
6015000000	-22.3817836341799	-2.53902203364879	-43.2725111319727	-44.97849707903	-43.0811553688401	-43.4279626340385	-19.0628544702272	72.8011590388053	
6100000000	-25.29370746988	71.5610579778694	-45.4335532830853	-33.9909424927243	-45.2974796934282	-32.0678325600155	-21.1544756705027	162.266203232104	
6185000000	-26.3660283623892	143.514395176803	-46.5408847891541	-7.16375709572609	-46.6836331601572	-6.99889340996431	-21.1998216154947	-100.701028031749	
6270000000	-30.1922118790412	-166.70601237775	-47.4956653971093	10.8005871814448	-47.320432526445	11.773280012557	-20.6423885245582	-4.98551073946943	
6355000000	-41.9559558680175	-88.3027757358725	-46.5993647059827	9.31268615551744	-46.3372291674058	9.71202508970198	-17.0005559428411	74.8047783737014	
6440000000	-36.8312273863039	71.4669619844229	-48.1795135020252	19.1859276381474	-48.3264241582616	19.925060764638	-15.8847767273461	142.195247566673	
6525000000	-26.3482347478981	107.261112604514	-49.2571716774384	68.2583570562337	-49.9509464669859	66.5963181647112	-15.333904573357	-154.794395896055	
6610000000	-22.9028137229138	137.467595196998	-48.7408251101398	61.7598411207469	-49.5051508702512	65.8575746284149	-17.9038474419244	-96.3778026263981	
6695000000	-21.8781731597733	-178.529042921024	-51.6581134528163	78.5223264950231	-51.8905656208547	79.255867584187	-23.2283291163711	-1.94457067972295	
6780000000	-24.0885090985892	-114.029994818687	-57.0425264712674	60.3620651569419	-57.833945511019	58.8704055330087	-21.3154629212721	98.8209355610164	
6865000000	-23.6152720148321	-12.2481924282181	-51.2720870500301	152.608731491697	-52.3016939011909	153.232174376259	-19.3678616073446	177.508994811927	
6950000000	-18.5919590229425	72.9968698001449	-54.8349698225403	115.237720236944	-56.1748322854784	123.683840056749	-19.4171642857567	-121.451714284194	
7035000000	-15.6441562862142	134.621041718589	-58.212639953478	-173.223204944901	-60.0721773432928	171.320702391079	-21.7255843768662	-45.0267669577504	
7120000000	-14.7107427040853	-163.943873169191	-60.2535715460738	-132.756581525343	-59.2529202071078	-135.870760519468	-21.8820108532003	29.6302686098029	
7205000000	-14.9525118656624	-91.092535515932	-57.5008756068169	-152.272959608165	-58.270707698085	-147.77474883218	-22.650655262646	86.7172172079232	
7290000000	-14.7001405610795	-7.76357551334219	-60.9555711965008	-155.005416968756	-63.0240811490758	-146.539547622708	-25.3329085484564	127.540094527344	
7375000000	-13.2702765699005	69.3530317995674	-57.4949486184176	-71.1277231881934	-58.3335625218215	-59.2350927613195	-27.7661959939605	131.669304307021	
7460000000	-12.3081734283116	142.356038521722	-55.9731432410059	-92.4084235692373	-57.124034984919	-88.6164367857881	-26.9553249971115	134.208118908449	
7545000000	-12.4137643268161	-142.832689530168	-59.7512466687824	-100.782244495297	-59.5643181406302	-109.693830262325	-29.6309350098553	167.444149706713	
7630000000	-11.8583386950357	-61.0109650242375	-71.8274136892757	170.662504776047	-71.0425584531985	153.421851929351	-36.5117002565846	-45.2771775956281	
7715000000	-10.7750364827302	16.4319765840595	-61.5862600113206	-53.6405144857928	-63.8173215800313	-56.4470919138905	-25.7026100549898	51.6079582758095	
7800000000	-10.3148195698243	89.9579588416415	-66.0057854502969	-136.416636128789	-66.8802374535651	-149.507027466925	-21.3300055378532	112.145177377919	
7885000000	-10.6072666261625	161.686098380586	-67.7943925092368	156.957777096416	-64.7606563562701	-178.429268509793	-20.6234198507359	172.856965431401	
7970000000	-11.0130076264412	-119.30897443476	-59.9753733195453	115.950733273751	-63.1403251220496	120.706896696885	-20.581847112258	-103.707678858026	
8055000000	-11.1362114852851	-35.100540677071	-61.1042783584186	134.137331606674	-61.8159701102331	136.791515047364	-18.8627100879811	-27.3020216499345	
8140000000	-10.6092787647277	43.0738727602578	-63.8120267803207	102.0298408839	-66.4612857361353	104.210462262495	-17.5860511122692	45.8573261219687	
8225000000	-10.4610996455603	119.424750515323	-63.4476038217422	157.819834585363	-62.8924034973314	174.388854426682	-16.8649912041879	117.024354768879	
8310000000	-10.6889140659943	-160.412640415824	-62.0362718379469	110.730636464373	-63.0408683233697	108.775575825774	-18.5305636516114	-164.207611199848	
8395000000	-10.3975045971966	-77.4702193927265	-67.9202453447986	140.07275201468	-68.5694839640837	118.44873991819	-17.8031272471409	-72.2481618827658	
8480000000	-10.0449732618985	1.74240803152032	-66.8805657837325	159.093131483547	-69.8277340040929	161.934906409604	-16.3807304289168	7.00427029513075	
8565000000	-9.90565465121922	78.336717106589	-72.4897007035876	-103.618681719627	-70.8233445970202	-146.917621439333	-15.9571995564997	81.3023414217498	
8650000000	-9.99240487700472	155.523698961262	-87.1890434454401	-17.3884166350699	-71.8952424289743	27.9454348041507	-15.7859192822984	158.348756200926	
8735000000	-9.91054073591735	-122.763718722443	-81.7466784905085	143.32522286543	-73.7093667273204	142.290790139635	-15.235342920867	-115.969977899624	
8820000000	-9.7177634852295	-44.5740671351341	-68.786855115175	28.1614722461118	-67.122195818266	45.8790870100648	-13.6758868041594	-42.9179901499237	
8905000000	-9.67178465121846	33.5239892697345	-72.736178456684	77.8025044991477	-78.1175022907593	66.6722007326902	-13.9141083271316	24.3247606114845	
8990000000	-10.2117375445239	112.526767793566	-66.3155310315198	38.9591320109427	-62.8770922166707	51.8851886213224	-15.5427955537341	100.850847618402	
9075000000	-10.3260640358964	-164.895019177272	-65.5093134355944	72.1526938065936	-66.0578609725791	56.0762142094989	-16.5614452873933	-167.716716050209	
9160000000	-10.019711319718	-84.5191349200561	-64.9233915220143	56.9261890436907	-67.0641832557185	69.6881344021955	-15.5101498115965	-82.1286338162923	
9245000000	-9.90841336552523	-4.89450711849763	-71.134451161145	47.5316595001209	-67.5762662776533	57.2453634922565	-14.8003797165327	-4.12763612905843	
9330000000	-10.1100315640034	74.4834992653012	-64.7528303965585	68.1228496609092	-66.163767747502	87.7139322540879	-14.7313704436165	75.8158096046308	
9415000000	-9.85278209364494	154.649560675866	-71.9186080434246	95.0559328480071	-69.8084085155308	102.233917922295	-13.9869756309925	157.369306604887	
9500000000	-9.86580054103742	-129.792922215991	-64.7729824085553	148.231031024169	-65.5818416796417	142.525448888934	-13.1751153105793	-133.929618387701	
9585000000	-10.5302408679845	-54.973028905208	-67.6382496358439	128.255756061787	-74.2812003560254	119.896570117813	-13.9277307646775	-70.9987306028388	
9670000000	-12.1885729396209	30.0021152580574	-65.5364932148391	179.619131281066	-65.3790088627617	-172.780652101388	-17.4261755705086	-3.29056269464619	
9755000000	-11.5855401268825	123.619947503179	-64.6754051562167	-132.354371223729	-70.5540213905343	-90.0666487664223	-22.3065665307983	115.56513196648	
9840000000	-10.1758700606737	-159.616009163588	-72.8965794187585	-97.333183302238	-73.3775263541783	-129.151940257551	-17.2215237461475	-150.061896189635	
9925000000	-10.3556620643777	-89.1850634167644	-72.3932172168905	-140.41328353625	-70.275541371253	-119.229812454702	-16.4562073696178	-82.736651122955	
10010000000	-12.0147579240456	-8.96130078880822	-65.7867329121846	-56.8397306874097	-73.9290492102043	-15.0388061931473	-17.5502269884558	-6.88244647081015	
10095000000	-12.4934443556473	84.014743249622	-67.6724332621886	-52.9960815314118	-70.8692377455233	-38.6942729406471	-17.2772741706155	83.9436224255444	
10180000000	-11.1314783621023	164.771856340493	-62.0683046417904	-47.6546936665859	-65.0317562461821	-45.6123137616544	-15.5361992674611	153.351744556117	
10265000000	-11.149604759986	-123.405115718381	-62.9636561888958	7.52557468613948	-62.2082811369872	18.7073333787196	-16.8127083416395	-152.766839345436	
10350000000	-12.2403466488864	-42.8987192979264	-60.8040755137069	9.05770772350572	-59.5935015282471	7.86072630888023	-24.4622411728242	-92.3211725694104	
10435000000	-11.8339095084238	48.0091650221584	-60.2872903954286	47.6735615717028	-58.5871840036793	61.7521939162458	-23.7563305607026	95.0886831547811	
10520000000	-10.8509197708567	123.265021113374	-59.8533324637229	32.8426138552317	-60.7323251301129	40.3000825072322	-16.5708178064618	147.056133509409	
10605000000	-11.9986857531267	-169.596170577544	-65.883600322316	79.1947565849127	-65.5445375048061	74.1976853863986	-15.6933121069934	-163.821770931487	
10690000000	-15.6304735641215	-81.91004864542	-58.3242118575304	73.6428709715128	-58.8751821421004	77.6268798018249	-19.0618534507489	-111.661300738653	
10775000000	-13.9432817188338	23.5409888666374	-57.7718014819126	92.6818332214184	-58.0680644287263	100.74678408227	-25.2935096312357	-18.3942859599896	
10860000000	-11.3830616724346	97.2109861861369	-60.8652413968438	109.321697501968	-61.3822582931103	105.036595835125	-22.603559580914	76.2198888341349	
10945000000	-11.4492058208597	162.29666493312	-59.3185726400858	92.7096976748153	-60.723322560556	102.838464398493	-23.8345757864442	125.070560509399	
11030000000	-14.4791240028405	-120.263667287397	-59.8312709256795	113.316520473331	-59.9334745083989	121.875022882062	-32.1341060123911	125.973893460754	
11115000000	-14.8328049155622	-16.7022023194354	-62.9974386670319	153.032933969422	-62.0936178152296	166.498506220335	-22.9887043507636	67.4017569107294	
11200000000	-12.2118967126867	65.6466739553139	-63.5405686891067	-133.195248320396	-64.1248744023306	-163.268668256637	-18.1496682810943	97.0018711733461	
11285000000	-11.5574537759562	131.971753316048	-59.2394319561662	-149.071415961756	-61.5773124978705	-148.93028999685	-18.0514987646599	131.341909151913	
11370000000	-13.3602065978837	-156.194336624043	-64.1309530200621	-152.396605073941	-62.4315796418021	-165.203268674946	-21.3121119020428	165.147896887005	
11455000000	-14.4914896205257	-62.6234575823211	-62.5426916085035	-116.176695826863	-63.592712389321	-114.572080194634	-31.7468447710911	172.574778003541	
11540000000	-13.2543974759823	22.3713367285021	-62.1174178247225	-98.323126594407	-63.8711267194193	-91.6730335724513	-31.5280895115391	91.6518840622919	
11625000000	-13.0273355256368	93.1680962723268	-60.6711616536901	-79.9880837198402	-61.0043979251989	-76.0120331721688	-28.5512292883889	104.264300695407	
11710000000	-14.7376089273598	168.661044669442	-65.7388467251903	-71.2659967646434	-64.521627753836	-57.1164300436473	-58.1310381286666	-168.226245825761	
11795000000	-15.4783809637882	-95.9953693367429	-61.5178712087593	-35.8036791646051	-63.8351012947953	-24.7314768560337	-28.3635118128317	-9.08319479585834	
