!Keysight Technologies N9917A: A.09.53
!Date: Thursday, 10 October 2019 14:10:46
!TimeZone: (UTC-08:00) Pacific Time (US & Canada)!Model: N9917A
!Serial: MY56072049
!GPS Latitude: 
!GPS Longitude: 
!GPS TimeStamp: 0001-01-01 00:00:00Z
!GPS Seconds Since Last Read: 0
!CHECKSUM:0773849327
!Correction: S11(ON U)
!S1P File: Measurement: S11:
# Hz S DB R 50
1000000000	-2.9231751644998	-106.358966487489
1010625000	-2.8525050599897	-108.85743335658
1021250000	-2.87492965050481	-111.127237786493
1031875000	-3.02813547546374	-113.227424334067
1042500000	-3.20071772968826	-115.89045506955
1053125000	-3.37055950558422	-119.331379002835
1063750000	-3.4886400977539	-123.298634088469
1074375000	-3.42938912847532	-127.429671314769
1085000000	-3.31279325649631	-131.119714696348
1095625000	-3.26812002261088	-134.417460414568
1106250000	-3.29080881414097	-137.116284576674
1116875000	-3.48684610443706	-139.208945133889
1127500000	-3.59999722775502	-141.171351716301
1138125000	-3.75503769537991	-144.148277757324
1148750000	-3.78566245140144	-148.056809041539
1159375000	-3.83914186388474	-152.194914930576
1170000000	-3.86967634437996	-156.019888218937
1180625000	-3.86070226686579	-159.196180590663
1191250000	-3.96305174413996	-162.002567277584
1201875000	-4.09418793416312	-164.863295981065
1212500000	-4.31105489548979	-167.545286038177
1223125000	-4.46060995938102	-170.598078810617
1233750000	-4.59899726047021	-173.691072980412
1244375000	-4.57985804986409	-176.876612450538
1255000000	-4.59129777767209	179.865334622483
1265625000	-4.63585973335891	176.415637989333
1276250000	-4.87175925575699	173.466795680259
1286875000	-5.21842246115587	170.462497310819
1297500000	-5.4293832173763	167.115599478442
1308125000	-5.68198133669139	163.513790822756
1318750000	-5.79475638838811	159.850817518169
1329375000	-5.79715095227322	156.915481788988
1340000000	-5.83970318045519	154.522426688003
1350625000	-5.94356874469982	152.979449651375
1361250000	-6.10548193062734	150.96991242277
1371875000	-6.55644945115306	148.007124296093
1382500000	-7.17525652996779	144.049409840367
1393125000	-7.6711190843166	139.235003715942
1403750000	-7.82493836095422	134.772088260555
1414375000	-7.68459842624282	130.431110892629
1425000000	-7.52429430370608	127.989808150724
1435625000	-7.5650770328689	127.081427206367
1446250000	-7.9624122786093	127.485511812095
1456875000	-8.46791263324879	128.625189520055
1467500000	-9.23799736444263	126.637062930877
1478125000	-10.1493346794473	121.544119070009
1488750000	-10.8232466758065	112.237371689399
1499375000	-11.0814377838269	104.728324126635
1510000000	-10.6538446279299	99.8134928821604
1520625000	-10.2118962817435	99.852998977341
1531250000	-10.0959171759563	102.977589312733
1541875000	-10.4293004917363	108.105848942116
1552500000	-11.2791157534377	112.559159596959
1563125000	-12.7881328989743	114.40310378777
1573750000	-14.7561619202233	108.963982797708
1584375000	-16.9617405367754	91.3520436759273
1595000000	-17.2735215073484	74.3810403296525
1605625000	-15.8753376190244	68.3977661735144
1616250000	-14.3978940798769	73.8264440201051
1626875000	-13.5941288415995	82.4410428757828
1637500000	-13.4188685751646	94.6979850696216
1648125000	-14.2145823868255	108.967369352087
1658750000	-15.6983049894582	126.106309671839
1669375000	-17.7184543388542	146.101897822915
1680000000	-20.5583381178187	165.14421724607
1690625000	-26.0876741192746	170.624082286383
1701250000	-32.8283002198656	103.281811569145
1711875000	-23.4856710434447	69.603872273244
1722500000	-17.9357646601749	79.8869930452931
1733125000	-14.7833623110344	91.5026769882652
1743750000	-13.0998983546261	103.439895550434
1754375000	-12.3822942890151	117.307945645686
1765000000	-12.2192728895213	133.296466616693
1775625000	-12.4741454386179	146.022801215864
1786250000	-14.1873051657076	154.615218596459
1796875000	-18.3530535246688	160.793638266259
1807500000	-26.7031036703807	159.002708165586
1818125000	-27.671672280239	56.4499161216748
1828750000	-18.9113050780085	51.9840808915953
1839375000	-14.8418569806655	62.8412717019876
1850000000	-12.3060678183452	75.6887348111993
1860625000	-10.7919704591698	89.3429966660023
1871250000	-10.1408400909253	101.621109599447
1881875000	-10.2883942749216	115.35498365378
1892500000	-11.414031395712	132.233102052079
1903125000	-13.1718458461991	153.205330634271
1913750000	-15.4418151171616	176.381862676454
1924375000	-19.9785158429295	-156.081236396252
1935000000	-26.2212390034217	-75.470813539468
1945625000	-18.7704866288701	-4.04067765682856
1956250000	-14.3701095312629	22.6072692705527
1966875000	-11.8964743367785	43.0068895030762
1977500000	-10.4256762530755	62.0388086176102
1988125000	-9.56215913652654	80.2128701997338
1998750000	-9.46167752001552	97.1119691809401
2009375000	-10.2849778352587	114.58349367058
2020000000	-11.9914683176192	135.242217789003
2030625000	-14.7603152137221	158.906215415203
2041250000	-19.8806461408962	-168.156622729401
2051875000	-24.3387498985299	-89.4536560798585
2062500000	-19.371188979879	-19.6643720600567
2073125000	-14.8417990169838	10.6971515560309
2083750000	-12.5298658422088	32.3577481562415
2094375000	-11.4581229300782	51.0768995386496
2105000000	-11.5056708462916	69.0480323058428
2115625000	-12.466110823282	88.8412181256268
2126250000	-14.0230472191972	112.38883839912
2136875000	-16.4238296459069	138.454380401991
2147500000	-20.7228437977115	167.825084294226
2158125000	-26.2461347711169	-116.667259344886
2168750000	-21.5812106486157	-47.5302951750766
2179375000	-18.0479580292804	-18.4164697908312
2190000000	-16.8324959480074	7.79828201443957
2200625000	-16.1123025292532	34.2232997103361
2211250000	-16.0180274984467	58.6825109686306
2221875000	-16.3321919221425	83.0794725000735
2232500000	-17.4468992545645	110.696539229945
2243125000	-18.6377767831493	138.669779148319
2253750000	-20.6674062922785	167.837990569896
2264375000	-22.688993457935	-157.123366062735
2275000000	-25.3462196895428	-118.720175264968
2285625000	-28.1993592773388	-67.2947816980195
2296250000	-27.6483423214852	3.50272346456648
2306875000	-23.1525363657434	49.5945541261598
2317500000	-20.1669733236618	74.1415310607845
2328125000	-18.5248615412012	95.2008414337735
2338750000	-17.9390039398844	114.296149614512
2349375000	-17.5543259330641	134.806541982834
2360000000	-17.5105415172341	148.740589934432
2370625000	-18.7437678572023	157.726815643719
2381250000	-21.0458277857187	161.270039545155
2391875000	-24.4292402822053	153.223601004371
2402500000	-26.3883578379827	118.503287926553
2413125000	-23.141711732033	97.229935895975
2423750000	-19.3299158484609	95.6700493935239
2434375000	-16.5741005977517	99.780640066849
2445000000	-15.1596016544566	104.962721849247
2455625000	-14.7087295926174	111.324204229951
2466250000	-14.910017764815	119.569038313297
2476875000	-15.4771411364859	125.719212915107
2487500000	-16.6538898818683	127.902212609637
2498125000	-18.1589748756693	121.227292174704
2508750000	-19.0474063021033	104.271450384627
2519375000	-18.0880558461342	84.7280085651224
2530000000	-16.0069615093592	77.5812999365863
2540625000	-14.1756884635215	78.4440078248037
2551250000	-13.0973809471081	84.3272790443814
2561875000	-12.5712127559345	90.6723137582167
2572500000	-12.6822323032952	96.3424878764643
2583125000	-13.4643547019643	100.129921893864
2593750000	-14.9058592275471	98.4960327774475
2604375000	-16.4337090417555	88.2709568059269
2615000000	-16.8005338868854	70.7056258362683
2625625000	-15.4239784590859	58.0492226727849
2636250000	-13.4244817808666	54.2356945269449
2646875000	-12.0446164364936	57.0586189353492
2657500000	-11.3424066239256	61.9781927299994
2668125000	-11.4585413727548	67.3778100474877
2678750000	-12.0753610922772	72.3425097764622
2689375000	-13.2912389723558	73.72189183104
2700000000	-14.8676361704621	67.3756265226765
2710625000	-15.8089833059534	51.9153034376505
2721250000	-14.8755124851981	36.4113241347348
2731875000	-13.3254291478819	30.3322334596464
2742500000	-11.9463806136325	30.7081579184908
2753125000	-11.1799018841764	35.8769738469942
2763750000	-11.0324809195383	40.4468737107495
2774375000	-11.4807236197765	45.8718470633131
2785000000	-12.5255152154757	47.5231211075103
2795625000	-13.8047383149428	43.236483100641
2806250000	-14.7293434601497	31.4109212093942
2816875000	-14.5158385694495	17.4507072888033
2827500000	-13.2861185892843	9.47068487721062
2838125000	-12.0088605068107	8.25471033729813
2848750000	-11.28414891105	10.7421548206466
2859375000	-11.0570243466954	14.735289247009
2870000000	-11.333029646719	17.9013389889659
2880625000	-12.0721865027224	18.9594772144535
2891250000	-13.2358942367297	15.3306294885761
2901875000	-14.2297819805299	6.84821686750736
2912500000	-14.3968552629545	-3.46966631381359
2923125000	-13.6294238374838	-10.4741275224961
2933750000	-12.662497033485	-13.4799042759188
2944375000	-11.9890484433282	-13.3996984084155
2955000000	-11.7248049060475	-11.0041477386829
2965625000	-11.8916126782581	-8.79250906028945
2976250000	-12.355076587072	-7.41829398626768
2986875000	-13.0583542876258	-8.40501426117767
2997500000	-13.6004162101493	-12.7555100006613
3008125000	-13.8473892211059	-18.8938519418545
3018750000	-13.585475260789	-26.7946801221497
3029375000	-13.1921920854111	-31.2696404292191
3040000000	-12.7805391781941	-34.4313692805462
3050625000	-12.4060738623115	-35.4379570456518
3061250000	-12.2573329475164	-34.4043589194533
3071875000	-12.2929038791596	-34.4470346785642
3082500000	-12.460813064724	-34.6674472241884
3093125000	-12.7107248165692	-36.6299533502695
3103750000	-13.1857175633661	-39.7162644002608
3114375000	-13.6779413260918	-44.578091950339
3125000000	-13.6866251015577	-49.5667289784533
3135625000	-13.5724859414309	-55.5489753043402
3146250000	-13.226200283191	-59.9652932412881
3156875000	-12.8636732556726	-61.9654621024143
3167500000	-12.4244797223728	-61.8590269231164
3178125000	-12.3383975188616	-60.0995628970511
3188750000	-12.3939532927707	-58.879373318789
3199375000	-12.7988679878765	-59.2352957081687
3210000000	-13.5946000560298	-60.9995087117371
3220625000	-14.1731323971794	-66.0732179963498
3231250000	-14.468498624918	-74.045498212498
3241875000	-14.0418813615665	-81.6955936963616
3252500000	-13.1967217109244	-85.8537955369975
3263125000	-12.519570617251	-86.8385343267578
3273750000	-12.0058544367805	-84.8676650372497
3284375000	-11.9458618282875	-81.4825451422501
3295000000	-12.2811065048742	-80.1403109817042
3305625000	-13.1732319681762	-80.9103433704298
3316250000	-14.186443462182	-86.0758550556137
3326875000	-14.72455989935	-95.8239883531309
3337500000	-14.4068342458139	-105.944999373889
3348125000	-13.5623876435867	-112.371460487534
3358750000	-12.6578410154118	-112.947799239015
3369375000	-12.0065221050348	-110.107038395096
3380000000	-11.8333287617318	-107.816226696038
3390625000	-12.3658822078482	-106.043704594138
3401250000	-13.5492827736688	-105.737251832027
3411875000	-14.9210814522908	-109.64463868434
3422500000	-15.6001399248336	-119.350042393575
3433125000	-15.2645734657722	-130.274180924516
3443750000	-13.921108512737	-137.24447715663
3454375000	-12.9425457220864	-139.99005014635
3465000000	-12.5411536000195	-138.173088146312
3475625000	-12.6669960779492	-135.321757309836
3486250000	-13.3308095830877	-131.758813645609
3496875000	-14.3932390425487	-130.257559080161
3507500000	-15.4553730359082	-134.032049770557
3518125000	-16.2925493694546	-144.174023107979
3528750000	-15.8879707984638	-157.610833026371
3539375000	-14.992669710875	-164.85742440243
3550000000	-14.2868439188533	-167.071240267016
3560625000	-13.9563604577397	-165.010344186524
3571250000	-14.199751569994	-160.930666506551
3581875000	-14.6695992018301	-157.873207500792
3592500000	-15.4012589634801	-158.013494478986
3603125000	-16.6971282662822	-163.118107920081
3613750000	-17.3367393330901	-173.947782991322
3624375000	-17.2715395122319	174.36687031099
3635000000	-16.9704644879897	166.953076792235
3645625000	-16.4586628231127	165.664868286475
3656250000	-16.3051588030097	168.820688564394
3666875000	-16.3018784707554	171.922382082002
3677500000	-16.3957572470348	171.978794973932
3688125000	-17.4072971151134	168.645168625775
3698750000	-18.4540626113475	162.682991688951
3709375000	-19.7106609024732	154.716151416845
3720000000	-20.2958365386575	148.094472018161
3730625000	-19.9765252976715	144.501612345238
3741250000	-19.4536908366908	144.527105454693
3751875000	-19.1317531562394	141.495021887365
3762500000	-19.278130436336	139.731554695483
3773125000	-19.5468941462768	137.133417594695
3783750000	-19.7334141755929	131.542012443023
3794375000	-21.2836406094173	127.058494557563
3805000000	-22.5249322596967	128.966682050085
3815625000	-23.1368301527154	130.493342195901
3826250000	-23.0848234668494	126.224262276588
3836875000	-23.2661753245896	118.259103545198
3847500000	-23.1519174332008	102.728633090536
3858125000	-23.3743390092273	88.8182564256963
3868750000	-23.7831752810623	84.3729636027855
3879375000	-23.7078057911947	88.4042864251757
3890000000	-24.1739448930376	98.0387370998805
3900625000	-24.4544504538439	104.680438806199
3911250000	-25.893790184873	106.504973322731
3921875000	-28.4101160992874	97.1677326837779
3932500000	-31.664420363519	58.9882868478417
3943125000	-29.753794865299	16.682198157362
3953750000	-27.2508379873116	11.0742705588546
3964375000	-26.760877099009	20.0621903050132
3975000000	-26.6892072506148	36.572534158184
3985625000	-27.3895194714334	53.0971415378652
3996250000	-28.9500260705211	75.6409772146886
4006875000	-32.230394613518	89.9035339733766
4017500000	-54.0529954175416	-68.393505492759
4028125000	-30.3827505979024	-73.1125896117588
4038750000	-26.4116465361616	-67.7193534433011
4049375000	-25.2716280828797	-59.7644438540068
4060000000	-26.5374713529463	-41.278852068863
4070625000	-28.0799613503917	-9.14606583578655
4081250000	-29.0374953623192	11.0914503721042
4091875000	-34.409787108609	13.5496902241461
4102500000	-37.597109366136	-118.380892198572
4113125000	-27.6822887630401	-131.267665015617
4123750000	-24.2771711005539	-123.020485369785
4134375000	-23.4004348777421	-114.534470391218
4145000000	-23.9319196317702	-97.6083919054816
4155625000	-24.8388418581313	-79.9367491121561
4166250000	-25.7446678942655	-61.1883779170364
4176875000	-28.9395603754399	-69.8804822548931
4187500000	-31.9380797577349	-126.035278600454
4198125000	-26.5231593407031	-158.230875835657
4208750000	-23.0709092368395	-162.042624403592
4219375000	-21.9313938259523	-157.546231148444
4230000000	-21.9623391226591	-145.462159551964
4240625000	-22.2115515488845	-129.56269569159
4251250000	-23.4194702524098	-120.00606662069
4261875000	-24.890576065765	-120.642696098567
4272500000	-26.2871749738727	-143.400198436692
4283125000	-25.7012085326247	-178.587223621942
4293750000	-23.3980433625162	166.686656349377
4304375000	-21.9308090121405	167.011465796613
4315000000	-21.675452568835	176.722191236377
4325625000	-21.3694933014312	-172.894390615448
4336250000	-21.0756495660209	-164.769770502189
4346875000	-22.0809651233382	-165.01466709855
4357500000	-23.1533066528302	-178.597971851578
4368125000	-24.5198907128252	160.083918196603
4378750000	-24.6753716337608	145.427042458042
4389375000	-24.0032646415943	144.837236119368
4400000000	-22.5681209545228	152.178391556705
4410625000	-21.0616082826731	157.646860308861
4421250000	-20.5220136217775	156.949317441068
4431875000	-20.7489689623164	153.784439616434
4442500000	-21.5988040821464	146.147012073374
4453125000	-22.8695579397614	140.989938665386
4463750000	-23.9726897923909	134.889167657
4474375000	-23.6600882701783	135.385812189998
4485000000	-22.5282738433328	133.870913449754
4495625000	-21.6737414190377	132.00040132597
4506250000	-21.3972957631867	129.247036148068
4516875000	-21.4343044147722	126.536182653049
4527500000	-21.5372614198187	120.310218203525
4538125000	-21.7645791551558	117.224806733106
4548750000	-21.8387703874541	116.766037153948
4559375000	-21.7023431518682	117.421420993317
4570000000	-21.4662788430611	117.189361241765
4580625000	-21.6944652842327	115.289801567239
4591250000	-22.481059374671	112.601049711557
4601875000	-22.4437029968976	104.700738803852
4612500000	-22.766447966534	95.8784118604109
4623125000	-22.0467083693122	90.9157943500746
4633750000	-21.2264304223438	90.9914714353936
4644375000	-21.0376718386224	92.3150158258886
4655000000	-20.8408191373207	99.1064823963792
4665625000	-21.0328111999114	103.513075472682
4676250000	-21.4255159038527	102.826482068026
4686875000	-23.2960232560323	98.0699371484941
4697500000	-24.5294496864474	85.003610695134
4708125000	-24.9713498720895	72.1560416461757
4718750000	-23.9334764165258	67.1100602510524
4729375000	-22.009325199368	72.4051259713553
4740000000	-20.6249111029383	78.0119532630274
4750625000	-20.140171225487	84.191880896171
4761250000	-20.2933368800005	89.2646256967545
4771875000	-21.9311387115692	91.961724365734
4782500000	-24.8050541089413	92.1890939914247
4793125000	-28.017910315446	89.1587607727646
4803750000	-27.6363640527844	70.8190373599816
4814375000	-24.9087351798452	59.9260941199036
4825000000	-22.0529763888657	58.7486800206496
4835625000	-20.6587415153008	63.8082308022225
4846250000	-20.1798112370801	69.0177552697665
4856875000	-21.1792376346168	80.1184384797327
4867500000	-22.5853662694018	95.1436682716989
4878125000	-23.5639128997109	106.567544847451
4888750000	-25.3869421180769	102.313996726941
4899375000	-27.0448954969494	82.3840682328028
4910000000	-25.4136882633215	63.2301125376387
4920625000	-23.0358157398231	53.2739116466287
4931250000	-22.0456406456483	56.6222373031751
4941875000	-21.3370769487624	71.5742289064819
4952500000	-20.5425658141457	84.925543168671
4963125000	-20.141383839715	92.3555679743204
4973750000	-20.6657470126357	96.9445423451702
4984375000	-22.0931270534468	95.881354503084
4995000000	-24.0275023892656	86.7163837324089
5005625000	-24.9604377956541	74.5631203051929
5016250000	-23.8581845735702	65.007165395846
5026875000	-21.8198716957209	70.8754466289504
5037500000	-20.1041932629416	74.5612853745667
5048125000	-18.674780855207	79.0503650029564
5058750000	-18.3158816000613	81.5007640429769
5069375000	-19.0001475061966	83.0388062773987
5080000000	-20.0639616614962	87.6941015594814
5090625000	-20.6492580063216	88.1017894259772
5101250000	-20.6478348339284	85.5116051386057
5111875000	-19.8616106429102	77.807198556338
5122500000	-18.9213184589874	70.1957065894953
5133125000	-18.0743558458906	69.7012301734601
5143750000	-17.5682745910923	69.1056954162016
5154375000	-17.5318807882474	70.2608105716792
5165000000	-17.3918545100654	74.1887616168842
5175625000	-17.2451469929134	74.9805165552754
5186250000	-17.0820206390592	75.1157118416261
5196875000	-17.030953662962	71.138287142792
5207500000	-16.689006513373	66.1915416963002
5218125000	-16.6704892672748	63.0891717284869
5228750000	-16.7354628397345	59.9073540771801
5239375000	-16.6995354269087	60.2904850589402
5250000000	-16.2600679966417	59.9552182805675
5260625000	-15.7704826559242	58.8197783679761
5271250000	-15.3496379053087	56.4069866267096
5281875000	-15.120092477419	52.647788620809
5292500000	-15.1189464379347	51.3629503265541
5303125000	-15.2595469861818	53.1850803861129
5313750000	-15.3614438456924	54.1130151279169
5324375000	-15.354338471903	52.5609415882484
5335000000	-15.231178995098	49.0824698098816
5345625000	-15.0477730104345	43.7948499196241
5356250000	-14.8753426288593	38.7496945104777
5366875000	-14.6977922881716	37.9895611034905
5377500000	-14.1502075771809	37.880282396461
5388125000	-13.747480323671	39.4090698271585
5398750000	-13.5111527653398	39.0484256861313
5409375000	-13.7029889960484	39.1760724754774
5420000000	-14.0958057370127	36.9419740167568
5430625000	-14.7096561820652	33.4815876790169
5441250000	-15.0122002553807	29.1715681254859
5451875000	-14.6751515968047	25.3829028730806
5462500000	-13.9325259746246	22.1500310024774
5473125000	-13.3141457550318	20.6397190047696
5483750000	-12.9630949048479	20.1687320533367
5494375000	-12.9955648768287	21.9968843688636
5505000000	-13.3553418909484	23.9593206274392
5515625000	-13.8532824022228	24.6055097216959
